Debug: 17 6 options.c:98 add_default_dirs(): bindir=/bin
Debug: 18 6 options.c:99 add_default_dirs(): pkgdatadir=/share/openocd
Debug: 19 6 options.c:100 add_default_dirs(): run_prefix=D:/Kim Area/Company/GP/Kim_Notebook/GPCM300/Tools/V1.1.2.2_20221228/toolchain/openocd
Debug: 20 6 configuration.c:44 add_script_search_dir(): adding C:\Users\kimhuang\AppData\Roaming/OpenOCD
Debug: 21 6 configuration.c:44 add_script_search_dir(): adding D:/Kim Area/Company/GP/Kim_Notebook/GPCM300/Tools/V1.1.2.2_20221228/toolchain/openocd/share/openocd/site
Debug: 22 6 configuration.c:44 add_script_search_dir(): adding D:/Kim Area/Company/GP/Kim_Notebook/GPCM300/Tools/V1.1.2.2_20221228/toolchain/openocd/share/openocd/scripts
Debug: 23 8 configuration.c:84 find_file(): found D:/Kim Area/Company/GP/Kim_Notebook/GPCM300/Tools/V1.1.2.2_20221228/toolchain/openocd/share/openocd/scripts/interface/cmsis-dap.cfg
Debug: 24 10 command.c:145 script_debug(): command - ocd_command ocd_command type ocd_interface cmsis-dap
Debug: 25 10 command.c:145 script_debug(): command - interface ocd_interface cmsis-dap
Debug: 27 10 command.c:366 register_command_handler(): registering 'ocd_cmsis-dap'...
Debug: 28 10 command.c:366 register_command_handler(): registering 'ocd_cmsis-dap'...
Debug: 29 10 command.c:366 register_command_handler(): registering 'ocd_cmsis-dap'...
Debug: 30 10 command.c:366 register_command_handler(): registering 'ocd_cmsis-dap'...
Debug: 31 10 command.c:366 register_command_handler(): registering 'ocd_cmsis_dap_vid_pid'...
Debug: 32 10 command.c:366 register_command_handler(): registering 'ocd_cmsis_dap_path'...
Debug: 33 10 command.c:366 register_command_handler(): registering 'ocd_jtag'...
Debug: 34 10 command.c:366 register_command_handler(): registering 'ocd_jtag'...
Debug: 35 10 command.c:366 register_command_handler(): registering 'ocd_jtag'...
Debug: 36 10 command.c:366 register_command_handler(): registering 'ocd_jtag'...
Debug: 37 10 command.c:366 register_command_handler(): registering 'ocd_jtag'...
Debug: 38 10 command.c:366 register_command_handler(): registering 'ocd_jtag'...
Debug: 39 10 command.c:366 register_command_handler(): registering 'ocd_jtag'...
Debug: 40 10 command.c:366 register_command_handler(): registering 'ocd_jtag'...
Debug: 41 10 command.c:366 register_command_handler(): registering 'ocd_jtag'...
Info : 42 10 transport.c:118 allow_transports(): only one transport option; autoselect 'cmsis-dap'
Debug: 43 10 adi_v5_cmsis_dap.c:281 cmsis_dap_select(): CMSIS-ADI: cmsis_dap_select
Debug: 44 10 command.c:401 register_command(): command 'cmsis-dap' is already registered in '<global>' context
Debug: 45 10 command.c:366 register_command_handler(): registering 'ocd_cmsis-dap'...
Debug: 46 11 configuration.c:84 find_file(): found D:/Kim Area/Company/GP/Kim_Notebook/GPCM300/Tools/V1.1.2.2_20221228/toolchain/openocd/share/openocd/scripts/target/GPCM3800A.cfg
Debug: 47 12 configuration.c:84 find_file(): found D:/Kim Area/Company/GP/Kim_Notebook/GPCM300/Tools/V1.1.2.2_20221228/toolchain/openocd/share/openocd/scripts/target/swj-dp.tcl
Debug: 48 12 configuration.c:84 find_file(): found D:/Kim Area/Company/GP/Kim_Notebook/GPCM300/Tools/V1.1.2.2_20221228/toolchain/openocd/share/openocd/scripts/mem_helper.tcl
Debug: 49 13 command.c:145 script_debug(): command - ocd_command ocd_command type ocd_add_usage_text mrw address
Debug: 50 13 command.c:145 script_debug(): command - add_usage_text ocd_add_usage_text mrw address
Debug: 52 13 command.c:1097 help_add_command(): added 'mrw' help text
Debug: 53 13 command.c:145 script_debug(): command - ocd_command ocd_command type ocd_add_help_text mrw Returns value of word in memory.
Debug: 54 13 command.c:145 script_debug(): command - add_help_text ocd_add_help_text mrw Returns value of word in memory.
Debug: 56 13 command.c:1110 help_add_command(): added 'mrw' help text
Debug: 57 13 command.c:145 script_debug(): command - ocd_command ocd_command type ocd_add_usage_text mmw address setbits clearbits
Debug: 58 13 command.c:145 script_debug(): command - add_usage_text ocd_add_usage_text mmw address setbits clearbits
Debug: 60 13 command.c:1097 help_add_command(): added 'mmw' help text
Debug: 61 13 command.c:145 script_debug(): command - ocd_command ocd_command type ocd_add_help_text mmw Modify word in memory. new_val = (old_val & ~clearbits) | setbits;
Debug: 62 13 command.c:145 script_debug(): command - add_help_text ocd_add_help_text mmw Modify word in memory. new_val = (old_val & ~clearbits) | setbits;
Debug: 64 13 command.c:1110 help_add_command(): added 'mmw' help text
Debug: 65 13 command.c:145 script_debug(): command - ocd_command ocd_command type ocd_transport select
Debug: 66 13 command.c:145 script_debug(): command - ocd_transport ocd_transport select
Debug: 67 13 command.c:145 script_debug(): command - ocd_command ocd_command type ocd_cmsis-dap newdap GBQ868 cpu -irlen 4 -ircapture 0x1 -irmask 0xf -expected-id 0x4ba00477
Debug: 68 13 command.c:145 script_debug(): command - ocd_cmsis-dap ocd_cmsis-dap newdap GBQ868 cpu -irlen 4 -ircapture 0x1 -irmask 0xf -expected-id 0x4ba00477
Debug: 69 13 tcl.c:554 jim_newtap_cmd(): Creating New Tap, Chip: GBQ868, Tap: cpu, Dotted: GBQ868.cpu, 8 params
Debug: 70 13 tcl.c:571 jim_newtap_cmd(): Processing option: -irlen
Debug: 71 13 tcl.c:571 jim_newtap_cmd(): Processing option: -ircapture
Debug: 72 13 tcl.c:571 jim_newtap_cmd(): Processing option: -irmask
Debug: 73 13 tcl.c:571 jim_newtap_cmd(): Processing option: -expected-id
Debug: 74 13 core.c:1319 jtag_tap_init(): Created Tap: GBQ868.cpu @ abs position 0, irlen 4, capture: 0x1 mask: 0xf
Debug: 75 13 command.c:145 script_debug(): command - ocd_command ocd_command type ocd_target create GBQ868.cpu cortex_m -endian little -chain-position GBQ868.cpu
Debug: 76 13 command.c:145 script_debug(): command - ocd_target ocd_target create GBQ868.cpu cortex_m -endian little -chain-position GBQ868.cpu
Debug: 77 13 target.c:1736 target_free_all_working_areas_restore(): freeing all working areas
Debug: 78 13 command.c:366 register_command_handler(): registering 'ocd_arm'...
Debug: 79 13 command.c:366 register_command_handler(): registering 'ocd_arm'...
Debug: 80 13 command.c:366 register_command_handler(): registering 'ocd_arm'...
Debug: 81 13 command.c:366 register_command_handler(): registering 'ocd_arm'...
Debug: 82 13 command.c:366 register_command_handler(): registering 'ocd_arm'...
Debug: 83 13 command.c:366 register_command_handler(): registering 'ocd_arm'...
Debug: 84 13 command.c:366 register_command_handler(): registering 'ocd_dap'...
Debug: 85 13 command.c:366 register_command_handler(): registering 'ocd_dap'...
Debug: 86 13 command.c:366 register_command_handler(): registering 'ocd_dap'...
Debug: 87 13 command.c:366 register_command_handler(): registering 'ocd_dap'...
Debug: 88 13 command.c:366 register_command_handler(): registering 'ocd_dap'...
Debug: 89 13 command.c:366 register_command_handler(): registering 'ocd_dap'...
Debug: 90 13 command.c:366 register_command_handler(): registering 'ocd_dap'...
Debug: 91 13 command.c:366 register_command_handler(): registering 'ocd_dap'...
Debug: 92 13 command.c:366 register_command_handler(): registering 'ocd_dap'...
Debug: 93 13 command.c:366 register_command_handler(): registering 'ocd_cortex_m'...
Debug: 94 13 command.c:366 register_command_handler(): registering 'ocd_cortex_m'...
Debug: 95 13 command.c:366 register_command_handler(): registering 'ocd_cortex_m'...
Debug: 96 13 command.c:366 register_command_handler(): registering 'ocd_GBQ868.cpu'...
Debug: 97 13 command.c:366 register_command_handler(): registering 'ocd_GBQ868.cpu'...
Debug: 98 13 command.c:366 register_command_handler(): registering 'ocd_GBQ868.cpu'...
Debug: 99 13 command.c:366 register_command_handler(): registering 'ocd_GBQ868.cpu'...
Debug: 100 13 command.c:366 register_command_handler(): registering 'ocd_GBQ868.cpu'...
Debug: 101 13 command.c:366 register_command_handler(): registering 'ocd_GBQ868.cpu'...
Debug: 102 13 command.c:366 register_command_handler(): registering 'ocd_GBQ868.cpu'...
Debug: 103 13 command.c:366 register_command_handler(): registering 'ocd_GBQ868.cpu'...
Debug: 104 13 command.c:366 register_command_handler(): registering 'ocd_GBQ868.cpu'...
Debug: 105 13 command.c:366 register_command_handler(): registering 'ocd_GBQ868.cpu'...
Debug: 106 13 command.c:366 register_command_handler(): registering 'ocd_GBQ868.cpu'...
Debug: 107 14 command.c:366 register_command_handler(): registering 'ocd_GBQ868.cpu'...
Debug: 108 14 command.c:366 register_command_handler(): registering 'ocd_GBQ868.cpu'...
Debug: 109 14 command.c:366 register_command_handler(): registering 'ocd_GBQ868.cpu'...
Debug: 110 14 command.c:366 register_command_handler(): registering 'ocd_GBQ868.cpu'...
Debug: 111 14 command.c:366 register_command_handler(): registering 'ocd_GBQ868.cpu'...
Debug: 112 14 command.c:366 register_command_handler(): registering 'ocd_GBQ868.cpu'...
Debug: 113 14 command.c:366 register_command_handler(): registering 'ocd_GBQ868.cpu'...
Debug: 114 14 command.c:366 register_command_handler(): registering 'ocd_GBQ868.cpu'...
Debug: 115 14 command.c:366 register_command_handler(): registering 'ocd_GBQ868.cpu'...
Debug: 116 14 command.c:366 register_command_handler(): registering 'ocd_GBQ868.cpu'...
Debug: 117 14 command.c:366 register_command_handler(): registering 'ocd_GBQ868.cpu'...
Debug: 118 14 command.c:366 register_command_handler(): registering 'ocd_GBQ868.cpu'...
Debug: 119 14 command.c:366 register_command_handler(): registering 'ocd_GBQ868.cpu'...
Debug: 120 14 command.c:366 register_command_handler(): registering 'ocd_GBQ868.cpu'...
Debug: 121 14 command.c:366 register_command_handler(): registering 'ocd_GBQ868.cpu'...
Debug: 122 14 command.c:366 register_command_handler(): registering 'ocd_GBQ868.cpu'...
Debug: 123 14 command.c:366 register_command_handler(): registering 'ocd_GBQ868.cpu'...
Debug: 124 14 command.c:366 register_command_handler(): registering 'ocd_GBQ868.cpu'...
Debug: 125 14 command.c:366 register_command_handler(): registering 'ocd_GBQ868.cpu'...
Debug: 126 14 command.c:366 register_command_handler(): registering 'ocd_GBQ868.cpu'...
Debug: 127 14 command.c:366 register_command_handler(): registering 'ocd_GBQ868.cpu'...
Debug: 128 14 command.c:366 register_command_handler(): registering 'ocd_GBQ868.cpu'...
Debug: 129 14 command.c:366 register_command_handler(): registering 'ocd_GBQ868.cpu'...
Debug: 130 14 command.c:366 register_command_handler(): registering 'ocd_GBQ868.cpu'...
Debug: 131 14 command.c:366 register_command_handler(): registering 'ocd_GBQ868.cpu'...
Debug: 132 14 command.c:366 register_command_handler(): registering 'ocd_GBQ868.cpu'...
Debug: 133 14 command.c:366 register_command_handler(): registering 'ocd_GBQ868.cpu'...
Debug: 134 14 command.c:366 register_command_handler(): registering 'ocd_GBQ868.cpu'...
Debug: 135 14 command.c:366 register_command_handler(): registering 'ocd_GBQ868.cpu'...
Debug: 136 14 command.c:145 script_debug(): command - ocd_command ocd_command type ocd_GBQ868.cpu configure -work-area-phys 0x20000100 -work-area-size 0x1000 -work-area-backup 0
Debug: 137 14 command.c:145 script_debug(): command - ocd_GBQ868.cpu ocd_GBQ868.cpu configure -work-area-phys 0x20000100 -work-area-size 0x1000 -work-area-backup 0
Debug: 138 14 target.c:1736 target_free_all_working_areas_restore(): freeing all working areas
Debug: 139 14 target.c:1736 target_free_all_working_areas_restore(): freeing all working areas
Debug: 140 14 target.c:1736 target_free_all_working_areas_restore(): freeing all working areas
Debug: 141 14 command.c:145 script_debug(): command - ocd_command ocd_command type ocd_flash bank GBQ868.flash0 gpcm1f 0x00000000 0x10000 0 0 GBQ868.cpu
Debug: 142 14 command.c:145 script_debug(): command - ocd_flash ocd_flash bank GBQ868.flash0 gpcm1f 0x00000000 0x10000 0 0 GBQ868.cpu
Debug: 144 14 command.c:366 register_command_handler(): registering 'ocd_gpcm1f'...
Debug: 145 14 tcl.c:851 handle_flash_bank_command(): 'gpcm1f' driver usage field missing
Debug: 146 14 command.c:145 script_debug(): command - ocd_command ocd_command type ocd_flash bank GBQ868.flash1 gpcm3800_spifc 0x04000000 0 0 0 GBQ868.cpu 24 4
Debug: 147 14 command.c:145 script_debug(): command - ocd_flash ocd_flash bank GBQ868.flash1 gpcm3800_spifc 0x04000000 0 0 0 GBQ868.cpu 24 4
Info : 149 14 gpcm3800_spifc.c:113 gpcm3800_spifc_flash_bank_command(): spi_clk_div 0x00000018
Info : 150 14 gpcm3800_spifc.c:115 gpcm3800_spifc_flash_bank_command(): spifc_clk_div 0x00000004
Debug: 151 14 tcl.c:851 handle_flash_bank_command(): 'gpcm3800_spifc' driver usage field missing
Debug: 152 14 command.c:145 script_debug(): command - ocd_command ocd_command type ocd_adapter_khz 6000
Debug: 153 14 command.c:145 script_debug(): command - adapter_khz ocd_adapter_khz 6000
Debug: 155 14 core.c:1645 jtag_config_khz(): handle jtag khz
Debug: 156 14 core.c:1612 adapter_khz_to_speed(): convert khz to interface specific speed value
Debug: 157 14 core.c:1612 adapter_khz_to_speed(): convert khz to interface specific speed value
User : 158 14 command.c:546 command_print(): adapter speed: 6000 kHz
Debug: 159 14 command.c:145 script_debug(): command - ocd_command ocd_command type ocd_reset_config connect_assert_srst
Debug: 160 14 command.c:145 script_debug(): command - reset_config ocd_reset_config connect_assert_srst
User : 162 14 command.c:546 command_print(): none separate
Debug: 163 14 command.c:145 script_debug(): command - ocd_command ocd_command type ocd_adapter_nsrst_delay 100
Debug: 164 14 command.c:145 script_debug(): command - adapter_nsrst_delay ocd_adapter_nsrst_delay 100
User : 166 14 command.c:546 command_print(): adapter_nsrst_delay: 100
Debug: 167 14 command.c:145 script_debug(): command - ocd_command ocd_command type ocd_GBQ868.cpu configure -event examine-start  
 poll off

Debug: 168 14 command.c:145 script_debug(): command - ocd_GBQ868.cpu ocd_GBQ868.cpu configure -event examine-start  
 poll off

Debug: 169 14 command.c:145 script_debug(): command - ocd_command ocd_command type ocd_GBQ868.cpu configure -event examine-end  
 poll on
 halt
 #poll on

Debug: 170 14 command.c:145 script_debug(): command - ocd_GBQ868.cpu ocd_GBQ868.cpu configure -event examine-end  
 poll on
 halt
 #poll on

Debug: 171 14 command.c:145 script_debug(): command - ocd_command ocd_command type ocd_GBQ868.cpu configure -event gdb-attach  
 cortex_m reset_config sysresetreq
 #halt

Debug: 172 14 command.c:145 script_debug(): command - ocd_GBQ868.cpu ocd_GBQ868.cpu configure -event gdb-attach  
 cortex_m reset_config sysresetreq
 #halt

Debug: 173 14 command.c:145 script_debug(): command - ocd_command ocd_command type ocd_GBQ868.cpu configure -event gdb-detach  
 shutdown

Debug: 174 14 command.c:145 script_debug(): command - ocd_GBQ868.cpu ocd_GBQ868.cpu configure -event gdb-detach  
 shutdown

Debug: 175 14 command.c:145 script_debug(): command - ocd_command ocd_command type ocd_GBQ868.cpu configure -event gdb-flash-erase-start  


Debug: 176 14 command.c:145 script_debug(): command - ocd_GBQ868.cpu ocd_GBQ868.cpu configure -event gdb-flash-erase-start  


Debug: 177 14 command.c:145 script_debug(): command - ocd_command ocd_command type ocd_GBQ868.cpu configure -event gdb-flash-write-end  
	global _DAP_FLAG
	if { $_DAP_FLAG == 0 } {
		#disable cache
		mww 0x50000030 0x0
		set _DAP_FLAG 1
	}

Debug: 178 14 command.c:145 script_debug(): command - ocd_GBQ868.cpu ocd_GBQ868.cpu configure -event gdb-flash-write-end  
	global _DAP_FLAG
	if { $_DAP_FLAG == 0 } {
		#disable cache
		mww 0x50000030 0x0
		set _DAP_FLAG 1
	}

Debug: 179 14 command.c:145 script_debug(): command - ocd_command ocd_command type ocd_GBQ868.cpu configure -event reset-end  
	
	#Disable halt mode
	mww 0x50005040 0x87
	mww 0x50005040 0x9A
	mmw 0x50005050 0x0 0x8
	mww 0x50005040 0x00
	
	#Disable WDG
	#mww 0x400D0000 0x55
	#mww 0x400D0000 0x00

Debug: 180 14 command.c:145 script_debug(): command - ocd_GBQ868.cpu ocd_GBQ868.cpu configure -event reset-end  
	
	#Disable halt mode
	mww 0x50005040 0x87
	mww 0x50005040 0x9A
	mmw 0x50005050 0x0 0x8
	mww 0x50005040 0x00
	
	#Disable WDG
	#mww 0x400D0000 0x55
	#mww 0x400D0000 0x00

Debug: 181 14 command.c:145 script_debug(): command - ocd_command ocd_command type ocd_adapter_khz 1000
Debug: 182 14 command.c:145 script_debug(): command - adapter_khz ocd_adapter_khz 1000
Debug: 184 14 core.c:1645 jtag_config_khz(): handle jtag khz
Debug: 185 15 core.c:1612 adapter_khz_to_speed(): convert khz to interface specific speed value
Debug: 186 15 core.c:1612 adapter_khz_to_speed(): convert khz to interface specific speed value
User : 187 15 command.c:546 command_print(): adapter speed: 1000 kHz
User : 188 15 command.c:691 command_run_line(): 1000User : 189 15 command.c:693 command_run_line(): 
Debug: 190 15 command.c:145 script_debug(): command - ocd_command ocd_command type ocd_gdb_port 3333
Debug: 191 15 command.c:145 script_debug(): command - gdb_port ocd_gdb_port 3333
Debug: 193 15 command.c:145 script_debug(): command - ocd_command ocd_command type ocd_telnet_port 4444
Debug: 194 15 command.c:145 script_debug(): command - telnet_port ocd_telnet_port 4444
Debug: 196 15 command.c:145 script_debug(): command - ocd_command ocd_command type ocd_cmsis_dap_path 6&324447b1&0&000
Debug: 197 15 command.c:145 script_debug(): command - cmsis_dap_path ocd_cmsis_dap_path 6&324447b1&0&000
Debug: 199 15 command.c:145 script_debug(): command - ocd_command ocd_command type ocd_init
Debug: 200 15 command.c:145 script_debug(): command - init ocd_init
Debug: 202 15 command.c:145 script_debug(): command - ocd_command ocd_command type ocd_target init
Debug: 203 15 command.c:145 script_debug(): command - ocd_target ocd_target init
Debug: 205 15 command.c:145 script_debug(): command - ocd_command ocd_command type ocd_target names
Debug: 206 15 command.c:145 script_debug(): command - ocd_target ocd_target names
Debug: 207 15 command.c:145 script_debug(): command - ocd_command ocd_command type ocd_GBQ868.cpu cget -event gdb-flash-erase-start
Debug: 208 15 command.c:145 script_debug(): command - ocd_GBQ868.cpu ocd_GBQ868.cpu cget -event gdb-flash-erase-start
Debug: 209 15 command.c:145 script_debug(): command - ocd_command ocd_command type ocd_GBQ868.cpu cget -event gdb-flash-write-end
Debug: 210 15 command.c:145 script_debug(): command - ocd_GBQ868.cpu ocd_GBQ868.cpu cget -event gdb-flash-write-end
Debug: 211 15 target.c:1299 handle_target_init_command(): Initializing targets...
Debug: 212 15 command.c:366 register_command_handler(): registering 'ocd_target_request'...
Debug: 213 15 command.c:366 register_command_handler(): registering 'ocd_trace'...
Debug: 214 15 command.c:366 register_command_handler(): registering 'ocd_trace'...
Debug: 215 15 command.c:366 register_command_handler(): registering 'ocd_fast_load_image'...
Debug: 216 15 command.c:366 register_command_handler(): registering 'ocd_fast_load'...
Debug: 217 15 command.c:366 register_command_handler(): registering 'ocd_profile'...
Debug: 218 15 command.c:366 register_command_handler(): registering 'ocd_virt2phys'...
Debug: 219 15 command.c:366 register_command_handler(): registering 'ocd_reg'...
Debug: 220 15 command.c:366 register_command_handler(): registering 'ocd_poll'...
Debug: 221 16 command.c:366 register_command_handler(): registering 'ocd_poll_once'...
Debug: 222 16 command.c:366 register_command_handler(): registering 'ocd_wait_halt'...
Debug: 223 16 command.c:366 register_command_handler(): registering 'ocd_halt'...
Debug: 224 16 command.c:366 register_command_handler(): registering 'ocd_resume'...
Debug: 225 16 command.c:366 register_command_handler(): registering 'ocd_reset'...
Debug: 226 16 command.c:366 register_command_handler(): registering 'ocd_soft_reset_halt'...
Debug: 227 16 command.c:366 register_command_handler(): registering 'ocd_step'...
Debug: 228 16 command.c:366 register_command_handler(): registering 'ocd_mdw'...
Debug: 229 16 command.c:366 register_command_handler(): registering 'ocd_mdh'...
Debug: 230 16 command.c:366 register_command_handler(): registering 'ocd_mdb'...
Debug: 231 16 command.c:366 register_command_handler(): registering 'ocd_mww'...
Debug: 232 16 command.c:366 register_command_handler(): registering 'ocd_mwh'...
Debug: 233 16 command.c:366 register_command_handler(): registering 'ocd_mwb'...
Debug: 234 16 command.c:366 register_command_handler(): registering 'ocd_bp'...
Debug: 235 16 command.c:366 register_command_handler(): registering 'ocd_rbp'...
Debug: 236 16 command.c:366 register_command_handler(): registering 'ocd_wp'...
Debug: 237 16 command.c:366 register_command_handler(): registering 'ocd_rwp'...
Debug: 238 16 command.c:366 register_command_handler(): registering 'ocd_load_image'...
Debug: 239 16 command.c:366 register_command_handler(): registering 'ocd_test_load_image'...
Debug: 240 16 command.c:366 register_command_handler(): registering 'ocd_dump_image'...
Debug: 241 16 command.c:366 register_command_handler(): registering 'ocd_verify_image_checksum'...
Debug: 242 16 command.c:366 register_command_handler(): registering 'ocd_verify_image'...
Debug: 243 16 command.c:366 register_command_handler(): registering 'ocd_test_image'...
Debug: 244 16 command.c:366 register_command_handler(): registering 'ocd_reset_nag'...
Debug: 245 16 command.c:366 register_command_handler(): registering 'ocd_ps'...
Debug: 246 16 command.c:366 register_command_handler(): registering 'ocd_test_mem_access'...
Info : 247 40 cmsis_dap_usb.c:341 cmsis_dap_usb_open(): Open probe: 0x1b3f:0x6707
Info : 248 42 cmsis_dap_usb.c:1175 cmsis_dap_get_caps_info(): CMSIS-DAP: SWD  Supported
Info : 249 42 cmsis_dap_usb.c:1177 cmsis_dap_get_caps_info(): CMSIS-DAP: JTAG Supported
Info : 250 43 cmsis_dap_usb.c:1490 cmsis_dap_swd_init(): CMSIS-DAP: Interface Initialised (SWD)
Info : 251 44 cmsis_dap_usb.c:1155 cmsis_dap_get_version_info(): CMSIS-DAP: FW Version = 3.0.3.0
Debug: 252 44 cmsis_dap_usb.c:1387 cmsis_dap_init(): CMSIS-DAP: Packet Size = 1024
Debug: 253 45 cmsis_dap_usb.c:1398 cmsis_dap_init(): CMSIS-DAP: Packet Count = 4
Debug: 254 45 cmsis_dap_usb.c:450 cmsis_dap_cmd_DAP_SWJ_Pins(): cmsis_dap_cmd_DAP_SWJ_Pins: pins 0x0, mask 0x0
Info : 255 48 cmsis_dap_usb.c:1196 cmsis_dap_get_status(): SWCLK/TCK = 0 SWDIO/TMS = 0 TDI = 0 TDO = 0 nTRST = 0 nRESET = 1
Debug: 256 69 cmsis_dap_usb.c:450 cmsis_dap_cmd_DAP_SWJ_Pins(): cmsis_dap_cmd_DAP_SWJ_Pins: pins 0x0, mask 0x80
Info : 257 97 cmsis_dap_usb.c:1439 cmsis_dap_init(): Connecting under reset
Debug: 258 97 cmsis_dap_usb.c:1206 cmsis_dap_reset_link(): CMSIS-DAP: cmsis_dap_reset_link
Info : 259 97 cmsis_dap_usb.c:1207 cmsis_dap_reset_link(): DAP_SWJ Sequence (reset: 50+ '1' followed by 0)
Debug: 260 102 cmsis_dap_usb.c:1299 cmsis_dap_reset_link(): DAP Write Abort
Debug: 261 103 cmsis_dap_usb.c:1308 cmsis_dap_reset_link(): Result 0x00
Info : 262 105 cmsis_dap_usb.c:1456 cmsis_dap_init(): CMSIS-DAP: Interface ready
Debug: 263 105 core.c:1612 adapter_khz_to_speed(): convert khz to interface specific speed value
Debug: 264 105 core.c:1615 adapter_khz_to_speed(): have interface set up
Debug: 265 117 core.c:1612 adapter_khz_to_speed(): convert khz to interface specific speed value
Debug: 266 117 core.c:1615 adapter_khz_to_speed(): have interface set up
Info : 267 117 core.c:1401 adapter_init(): clock speed 1000 kHz
Debug: 268 117 openocd.c:138 handle_init_command(): Debug Adapter init complete
Debug: 269 117 command.c:145 script_debug(): command - ocd_command ocd_command type ocd_transport init
Debug: 270 117 command.c:145 script_debug(): command - ocd_transport ocd_transport init
Debug: 272 117 transport.c:240 handle_transport_init(): handle_transport_init
Debug: 273 117 adi_v5_cmsis_dap.c:316 cmsis_dap_init(): CMSIS-ADI: cmsis_dap_init
Debug: 274 117 adi_v5_cmsis_dap.c:86 cmsis_dap_queue_idcode_read(): CMSIS-ADI: cmsis_dap_queue_idcode_read
Debug: 275 117 adi_v5_cmsis_dap.c:70 cmsis_dap_queue_dp_read(): CMSIS-ADI: cmsis_dap_queue_dp_read 0
Info : 276 117 adi_v5_cmsis_dap.c:350 cmsis_dap_init(): IDCODE 0x0bb11477
Debug: 277 117 adi_v5_cmsis_dap.c:60 cmsis_dap_queue_ap_abort(): CMSIS-ADI: cmsis_dap_queue_ap_abort
Debug: 278 118 cmsis_dap_usb.c:450 cmsis_dap_cmd_DAP_SWJ_Pins(): cmsis_dap_cmd_DAP_SWJ_Pins: pins 0x80, mask 0x80
Debug: 279 121 core.c:717 jtag_add_reset(): SRST line released
Debug: 280 121 core.c:741 jtag_add_reset(): TRST line released
Debug: 281 121 core.c:321 jtag_call_event_callbacks(): jtag event: TAP reset
Debug: 282 121 openocd.c:151 handle_init_command(): Examining targets...
Debug: 283 121 target.c:1415 target_call_event_callbacks(): target event 21 (examine-start)
Debug: 284 121 target.c:4436 target_handle_event(): target: (0) GBQ868.cpu (cortex_m) event: 21 (examine-start) action:  
 poll off

Debug: 285 121 command.c:145 script_debug(): command - ocd_command ocd_command type ocd_poll off
Debug: 286 121 command.c:145 script_debug(): command - poll ocd_poll off
Debug: 288 121 arm_adi_v5.c:876 ahbap_debugport_init():  
Debug: 289 121 adi_v5_cmsis_dap.c:70 cmsis_dap_queue_dp_read(): CMSIS-ADI: cmsis_dap_queue_dp_read 4
Debug: 290 122 adi_v5_cmsis_dap.c:99 cmsis_dap_queue_dp_write(): CMSIS-ADI: cmsis_dap_queue_dp_write 4 0x50000000
Debug: 291 122 adi_v5_cmsis_dap.c:104 cmsis_dap_queue_dp_write(): disabling overrun detection
Debug: 292 123 adi_v5_cmsis_dap.c:70 cmsis_dap_queue_dp_read(): CMSIS-ADI: cmsis_dap_queue_dp_read 4
Debug: 293 123 adi_v5_cmsis_dap.c:233 cmsis_dap_run(): CMSIS-ADI: cmsis_dap_run
Debug: 294 123 arm_adi_v5.c:925 ahbap_debugport_init(): DAP: wait CDBGPWRUPACK
Debug: 295 123 adi_v5_cmsis_dap.c:70 cmsis_dap_queue_dp_read(): CMSIS-ADI: cmsis_dap_queue_dp_read 4
Debug: 296 124 adi_v5_cmsis_dap.c:233 cmsis_dap_run(): CMSIS-ADI: cmsis_dap_run
Debug: 297 144 arm_adi_v5.c:925 ahbap_debugport_init(): DAP: wait CDBGPWRUPACK
Debug: 298 144 adi_v5_cmsis_dap.c:70 cmsis_dap_queue_dp_read(): CMSIS-ADI: cmsis_dap_queue_dp_read 4
Debug: 299 144 adi_v5_cmsis_dap.c:233 cmsis_dap_run(): CMSIS-ADI: cmsis_dap_run
Debug: 300 159 arm_adi_v5.c:925 ahbap_debugport_init(): DAP: wait CDBGPWRUPACK
Debug: 301 159 adi_v5_cmsis_dap.c:70 cmsis_dap_queue_dp_read(): CMSIS-ADI: cmsis_dap_queue_dp_read 4
Debug: 302 160 adi_v5_cmsis_dap.c:233 cmsis_dap_run(): CMSIS-ADI: cmsis_dap_run
Debug: 303 174 arm_adi_v5.c:925 ahbap_debugport_init(): DAP: wait CDBGPWRUPACK
Debug: 304 174 adi_v5_cmsis_dap.c:70 cmsis_dap_queue_dp_read(): CMSIS-ADI: cmsis_dap_queue_dp_read 4
Debug: 305 175 adi_v5_cmsis_dap.c:233 cmsis_dap_run(): CMSIS-ADI: cmsis_dap_run
Debug: 306 190 arm_adi_v5.c:925 ahbap_debugport_init(): DAP: wait CDBGPWRUPACK
Debug: 307 190 adi_v5_cmsis_dap.c:70 cmsis_dap_queue_dp_read(): CMSIS-ADI: cmsis_dap_queue_dp_read 4
Debug: 308 191 adi_v5_cmsis_dap.c:233 cmsis_dap_run(): CMSIS-ADI: cmsis_dap_run
Debug: 309 206 arm_adi_v5.c:925 ahbap_debugport_init(): DAP: wait CDBGPWRUPACK
Debug: 310 206 adi_v5_cmsis_dap.c:70 cmsis_dap_queue_dp_read(): CMSIS-ADI: cmsis_dap_queue_dp_read 4
Debug: 311 206 adi_v5_cmsis_dap.c:233 cmsis_dap_run(): CMSIS-ADI: cmsis_dap_run
Debug: 312 221 arm_adi_v5.c:925 ahbap_debugport_init(): DAP: wait CDBGPWRUPACK
Debug: 313 221 adi_v5_cmsis_dap.c:70 cmsis_dap_queue_dp_read(): CMSIS-ADI: cmsis_dap_queue_dp_read 4
Debug: 314 222 adi_v5_cmsis_dap.c:233 cmsis_dap_run(): CMSIS-ADI: cmsis_dap_run
Debug: 315 237 arm_adi_v5.c:925 ahbap_debugport_init(): DAP: wait CDBGPWRUPACK
Debug: 316 237 adi_v5_cmsis_dap.c:70 cmsis_dap_queue_dp_read(): CMSIS-ADI: cmsis_dap_queue_dp_read 4
Debug: 317 238 adi_v5_cmsis_dap.c:233 cmsis_dap_run(): CMSIS-ADI: cmsis_dap_run
Debug: 318 253 arm_adi_v5.c:925 ahbap_debugport_init(): DAP: wait CDBGPWRUPACK
Debug: 319 253 adi_v5_cmsis_dap.c:70 cmsis_dap_queue_dp_read(): CMSIS-ADI: cmsis_dap_queue_dp_read 4
Debug: 320 253 adi_v5_cmsis_dap.c:233 cmsis_dap_run(): CMSIS-ADI: cmsis_dap_run
Debug: 321 268 arm_adi_v5.c:925 ahbap_debugport_init(): DAP: wait CDBGPWRUPACK
Debug: 322 268 adi_v5_cmsis_dap.c:70 cmsis_dap_queue_dp_read(): CMSIS-ADI: cmsis_dap_queue_dp_read 4
Debug: 323 268 adi_v5_cmsis_dap.c:233 cmsis_dap_run(): CMSIS-ADI: cmsis_dap_run
Debug: 324 284 adi_v5_cmsis_dap.c:70 cmsis_dap_queue_dp_read(): CMSIS-ADI: cmsis_dap_queue_dp_read 4
Debug: 325 285 adi_v5_cmsis_dap.c:99 cmsis_dap_queue_dp_write(): CMSIS-ADI: cmsis_dap_queue_dp_write 4 0x50000001
Debug: 326 285 adi_v5_cmsis_dap.c:104 cmsis_dap_queue_dp_write(): disabling overrun detection
Debug: 327 285 adi_v5_cmsis_dap.c:70 cmsis_dap_queue_dp_read(): CMSIS-ADI: cmsis_dap_queue_dp_read 4
Debug: 328 286 adi_v5_cmsis_dap.c:156 cmsis_dap_queue_ap_write(): CMSIS-ADI: cmsis_dap_queue_ap_write 0 0xa2000020
Debug: 329 286 adi_v5_cmsis_dap.c:99 cmsis_dap_queue_dp_write(): CMSIS-ADI: cmsis_dap_queue_dp_write 8 0x00000000
Debug: 330 287 adi_v5_cmsis_dap.c:156 cmsis_dap_queue_ap_write(): CMSIS-ADI: cmsis_dap_queue_ap_write 4 0x00000000
Info : 331 288 cmsis_dap_usb.c:763 cmsis_dap_swd_write_reg(): CMSIS-DAP: Write error (0x04)
Debug: 332 288 cmsis_dap_usb.c:1206 cmsis_dap_reset_link(): CMSIS-DAP: cmsis_dap_reset_link
Info : 333 288 cmsis_dap_usb.c:1207 cmsis_dap_reset_link(): DAP_SWJ Sequence (reset: 50+ '1' followed by 0)
Debug: 334 291 cmsis_dap_usb.c:1299 cmsis_dap_reset_link(): DAP Write Abort
Debug: 335 292 cmsis_dap_usb.c:1308 cmsis_dap_reset_link(): Result 0x00
Debug: 336 292 adi_v5_cmsis_dap.c:136 cmsis_dap_queue_ap_read(): CMSIS-ADI: cmsis_dap_queue_ap_read 0
Info : 337 294 cmsis_dap_usb.c:712 cmsis_dap_swd_read_reg(): CMSIS-DAP: Read error (0x04)
Debug: 338 294 cmsis_dap_usb.c:1206 cmsis_dap_reset_link(): CMSIS-DAP: cmsis_dap_reset_link
Info : 339 294 cmsis_dap_usb.c:1207 cmsis_dap_reset_link(): DAP_SWJ Sequence (reset: 50+ '1' followed by 0)
Debug: 340 297 cmsis_dap_usb.c:1299 cmsis_dap_reset_link(): DAP Write Abort
Debug: 341 297 cmsis_dap_usb.c:1308 cmsis_dap_reset_link(): Result 0x00
Debug: 342 297 adi_v5_cmsis_dap.c:136 cmsis_dap_queue_ap_read(): CMSIS-ADI: cmsis_dap_queue_ap_read 244
Debug: 343 298 adi_v5_cmsis_dap.c:99 cmsis_dap_queue_dp_write(): CMSIS-ADI: cmsis_dap_queue_dp_write 8 0x000000f0
Info : 344 299 cmsis_dap_usb.c:763 cmsis_dap_swd_write_reg(): CMSIS-DAP: Write error (0x04)
Debug: 345 300 cmsis_dap_usb.c:1206 cmsis_dap_reset_link(): CMSIS-DAP: cmsis_dap_reset_link
Info : 346 300 cmsis_dap_usb.c:1207 cmsis_dap_reset_link(): DAP_SWJ Sequence (reset: 50+ '1' followed by 0)
Debug: 347 303 cmsis_dap_usb.c:1299 cmsis_dap_reset_link(): DAP Write Abort
Debug: 348 304 cmsis_dap_usb.c:1308 cmsis_dap_reset_link(): Result 0x00
Debug: 349 305 adi_v5_cmsis_dap.c:233 cmsis_dap_run(): CMSIS-ADI: cmsis_dap_run
Debug: 350 305 arm_adi_v5.c:990 ahbap_debugport_init(): MEM_AP Packed Transfers: enabled
Debug: 351 305 arm_adi_v5.c:1001 ahbap_debugport_init(): MEM_AP CFG: large data 1, long address 1, big-endian 1
Debug: 352 305 cortex_m.c:651 cortex_m_halt(): target->state: unknown
Warn : 353 305 cortex_m.c:659 cortex_m_halt(): target was in unknown state when halt was requested
Debug: 354 305 adi_v5_cmsis_dap.c:156 cmsis_dap_queue_ap_write(): CMSIS-ADI: cmsis_dap_queue_ap_write 0 0xa2000002
Debug: 355 305 adi_v5_cmsis_dap.c:99 cmsis_dap_queue_dp_write(): CMSIS-ADI: cmsis_dap_queue_dp_write 8 0x00000000
Info : 356 306 cmsis_dap_usb.c:763 cmsis_dap_swd_write_reg(): CMSIS-DAP: Write error (0x04)
Debug: 357 306 cmsis_dap_usb.c:1206 cmsis_dap_reset_link(): CMSIS-DAP: cmsis_dap_reset_link
Info : 358 306 cmsis_dap_usb.c:1207 cmsis_dap_reset_link(): DAP_SWJ Sequence (reset: 50+ '1' followed by 0)
Debug: 359 309 cmsis_dap_usb.c:1299 cmsis_dap_reset_link(): DAP Write Abort
Debug: 360 310 cmsis_dap_usb.c:1308 cmsis_dap_reset_link(): Result 0x00
Debug: 361 311 adi_v5_cmsis_dap.c:156 cmsis_dap_queue_ap_write(): CMSIS-ADI: cmsis_dap_queue_ap_write 4 0xe000edf0
Info : 362 312 cmsis_dap_usb.c:763 cmsis_dap_swd_write_reg(): CMSIS-DAP: Write error (0x04)
Debug: 363 312 cmsis_dap_usb.c:1206 cmsis_dap_reset_link(): CMSIS-DAP: cmsis_dap_reset_link
Info : 364 312 cmsis_dap_usb.c:1207 cmsis_dap_reset_link(): DAP_SWJ Sequence (reset: 50+ '1' followed by 0)
Debug: 365 315 cmsis_dap_usb.c:1299 cmsis_dap_reset_link(): DAP Write Abort
Debug: 366 315 cmsis_dap_usb.c:1308 cmsis_dap_reset_link(): Result 0x00
Debug: 367 316 adi_v5_cmsis_dap.c:156 cmsis_dap_queue_ap_write(): CMSIS-ADI: cmsis_dap_queue_ap_write 16 0xa05f0003
Debug: 368 316 adi_v5_cmsis_dap.c:99 cmsis_dap_queue_dp_write(): CMSIS-ADI: cmsis_dap_queue_dp_write 8 0x00000010
Info : 369 317 cmsis_dap_usb.c:763 cmsis_dap_swd_write_reg(): CMSIS-DAP: Write error (0x04)
Debug: 370 317 cmsis_dap_usb.c:1206 cmsis_dap_reset_link(): CMSIS-DAP: cmsis_dap_reset_link
Info : 371 317 cmsis_dap_usb.c:1207 cmsis_dap_reset_link(): DAP_SWJ Sequence (reset: 50+ '1' followed by 0)
Debug: 372 320 cmsis_dap_usb.c:1299 cmsis_dap_reset_link(): DAP Write Abort
Debug: 373 321 cmsis_dap_usb.c:1308 cmsis_dap_reset_link(): Result 0x00
Debug: 374 322 adi_v5_cmsis_dap.c:233 cmsis_dap_run(): CMSIS-ADI: cmsis_dap_run
Debug: 375 322 adi_v5_cmsis_dap.c:156 cmsis_dap_queue_ap_write(): CMSIS-ADI: cmsis_dap_queue_ap_write 4 0xe000ed00
Debug: 376 322 adi_v5_cmsis_dap.c:99 cmsis_dap_queue_dp_write(): CMSIS-ADI: cmsis_dap_queue_dp_write 8 0x00000000
Info : 377 323 cmsis_dap_usb.c:763 cmsis_dap_swd_write_reg(): CMSIS-DAP: Write error (0x04)
Debug: 378 323 cmsis_dap_usb.c:1206 cmsis_dap_reset_link(): CMSIS-DAP: cmsis_dap_reset_link
Info : 379 323 cmsis_dap_usb.c:1207 cmsis_dap_reset_link(): DAP_SWJ Sequence (reset: 50+ '1' followed by 0)
Debug: 380 326 cmsis_dap_usb.c:1299 cmsis_dap_reset_link(): DAP Write Abort
Debug: 381 327 cmsis_dap_usb.c:1308 cmsis_dap_reset_link(): Result 0x00
Debug: 382 328 adi_v5_cmsis_dap.c:156 cmsis_dap_queue_ap_write(): CMSIS-ADI: cmsis_dap_queue_ap_write 0 0xa2000022
Info : 383 328 cmsis_dap_usb.c:763 cmsis_dap_swd_write_reg(): CMSIS-DAP: Write error (0x04)
Debug: 384 328 cmsis_dap_usb.c:1206 cmsis_dap_reset_link(): CMSIS-DAP: cmsis_dap_reset_link
Info : 385 329 cmsis_dap_usb.c:1207 cmsis_dap_reset_link(): DAP_SWJ Sequence (reset: 50+ '1' followed by 0)
Debug: 386 332 cmsis_dap_usb.c:1299 cmsis_dap_reset_link(): DAP Write Abort
Debug: 387 333 cmsis_dap_usb.c:1308 cmsis_dap_reset_link(): Result 0x00
Debug: 388 333 adi_v5_cmsis_dap.c:136 cmsis_dap_queue_ap_read(): CMSIS-ADI: cmsis_dap_queue_ap_read 12
Info : 389 335 cmsis_dap_usb.c:712 cmsis_dap_swd_read_reg(): CMSIS-DAP: Read error (0x04)
Debug: 390 335 cmsis_dap_usb.c:1206 cmsis_dap_reset_link(): CMSIS-DAP: cmsis_dap_reset_link
Info : 391 335 cmsis_dap_usb.c:1207 cmsis_dap_reset_link(): DAP_SWJ Sequence (reset: 50+ '1' followed by 0)
Debug: 392 338 cmsis_dap_usb.c:1299 cmsis_dap_reset_link(): DAP Write Abort
Debug: 393 338 cmsis_dap_usb.c:1308 cmsis_dap_reset_link(): Result 0x00
Debug: 394 339 adi_v5_cmsis_dap.c:233 cmsis_dap_run(): CMSIS-ADI: cmsis_dap_run
Debug: 395 339 target.c:2078 target_read_u32(): address: 0xe000ed00, value: 0x0bb11477
Debug: 396 339 cortex_m.c:2033 cortex_m_examine(): Cortex-M7 r11p7 processor detected
Debug: 397 339 cortex_m.c:2041 cortex_m_examine(): cpuid: 0x0bb11477
Debug: 398 339 adi_v5_cmsis_dap.c:156 cmsis_dap_queue_ap_write(): CMSIS-ADI: cmsis_dap_queue_ap_write 4 0xe000ef40
Info : 399 340 cmsis_dap_usb.c:763 cmsis_dap_swd_write_reg(): CMSIS-DAP: Write error (0x04)
Debug: 400 340 cmsis_dap_usb.c:1206 cmsis_dap_reset_link(): CMSIS-DAP: cmsis_dap_reset_link
Info : 401 340 cmsis_dap_usb.c:1207 cmsis_dap_reset_link(): DAP_SWJ Sequence (reset: 50+ '1' followed by 0)
Debug: 402 343 cmsis_dap_usb.c:1299 cmsis_dap_reset_link(): DAP Write Abort
Debug: 403 343 cmsis_dap_usb.c:1308 cmsis_dap_reset_link(): Result 0x00
Debug: 404 344 adi_v5_cmsis_dap.c:136 cmsis_dap_queue_ap_read(): CMSIS-ADI: cmsis_dap_queue_ap_read 12
Info : 405 345 cmsis_dap_usb.c:712 cmsis_dap_swd_read_reg(): CMSIS-DAP: Read error (0x04)
Debug: 406 345 cmsis_dap_usb.c:1206 cmsis_dap_reset_link(): CMSIS-DAP: cmsis_dap_reset_link
Info : 407 345 cmsis_dap_usb.c:1207 cmsis_dap_reset_link(): DAP_SWJ Sequence (reset: 50+ '1' followed by 0)
Debug: 408 348 cmsis_dap_usb.c:1299 cmsis_dap_reset_link(): DAP Write Abort
Debug: 409 349 cmsis_dap_usb.c:1308 cmsis_dap_reset_link(): Result 0x00
Debug: 410 350 adi_v5_cmsis_dap.c:233 cmsis_dap_run(): CMSIS-ADI: cmsis_dap_run
Debug: 411 350 target.c:2078 target_read_u32(): address: 0xe000ef40, value: 0x0bb11477
Debug: 412 350 adi_v5_cmsis_dap.c:156 cmsis_dap_queue_ap_write(): CMSIS-ADI: cmsis_dap_queue_ap_write 4 0xe000ef44
Info : 413 350 cmsis_dap_usb.c:763 cmsis_dap_swd_write_reg(): CMSIS-DAP: Write error (0x04)
Debug: 414 350 cmsis_dap_usb.c:1206 cmsis_dap_reset_link(): CMSIS-DAP: cmsis_dap_reset_link
Info : 415 350 cmsis_dap_usb.c:1207 cmsis_dap_reset_link(): DAP_SWJ Sequence (reset: 50+ '1' followed by 0)
Debug: 416 354 cmsis_dap_usb.c:1299 cmsis_dap_reset_link(): DAP Write Abort
Debug: 417 354 cmsis_dap_usb.c:1308 cmsis_dap_reset_link(): Result 0x00
Debug: 418 355 adi_v5_cmsis_dap.c:136 cmsis_dap_queue_ap_read(): CMSIS-ADI: cmsis_dap_queue_ap_read 12
Info : 419 356 cmsis_dap_usb.c:712 cmsis_dap_swd_read_reg(): CMSIS-DAP: Read error (0x04)
Debug: 420 356 cmsis_dap_usb.c:1206 cmsis_dap_reset_link(): CMSIS-DAP: cmsis_dap_reset_link
Info : 421 356 cmsis_dap_usb.c:1207 cmsis_dap_reset_link(): DAP_SWJ Sequence (reset: 50+ '1' followed by 0)
Debug: 422 360 cmsis_dap_usb.c:1299 cmsis_dap_reset_link(): DAP Write Abort
Debug: 423 360 cmsis_dap_usb.c:1308 cmsis_dap_reset_link(): Result 0x00
Debug: 424 361 adi_v5_cmsis_dap.c:233 cmsis_dap_run(): CMSIS-ADI: cmsis_dap_run
Debug: 425 361 target.c:2078 target_read_u32(): address: 0xe000ef44, value: 0x0bb11477
Debug: 426 361 adi_v5_cmsis_dap.c:156 cmsis_dap_queue_ap_write(): CMSIS-ADI: cmsis_dap_queue_ap_write 4 0xe0002000
Info : 427 362 cmsis_dap_usb.c:763 cmsis_dap_swd_write_reg(): CMSIS-DAP: Write error (0x04)
Debug: 428 362 cmsis_dap_usb.c:1206 cmsis_dap_reset_link(): CMSIS-DAP: cmsis_dap_reset_link
Info : 429 362 cmsis_dap_usb.c:1207 cmsis_dap_reset_link(): DAP_SWJ Sequence (reset: 50+ '1' followed by 0)
Debug: 430 365 cmsis_dap_usb.c:1299 cmsis_dap_reset_link(): DAP Write Abort
Debug: 431 365 cmsis_dap_usb.c:1308 cmsis_dap_reset_link(): Result 0x00
Debug: 432 366 adi_v5_cmsis_dap.c:136 cmsis_dap_queue_ap_read(): CMSIS-ADI: cmsis_dap_queue_ap_read 12
Info : 433 367 cmsis_dap_usb.c:712 cmsis_dap_swd_read_reg(): CMSIS-DAP: Read error (0x04)
Debug: 434 367 cmsis_dap_usb.c:1206 cmsis_dap_reset_link(): CMSIS-DAP: cmsis_dap_reset_link
Info : 435 367 cmsis_dap_usb.c:1207 cmsis_dap_reset_link(): DAP_SWJ Sequence (reset: 50+ '1' followed by 0)
Debug: 436 371 cmsis_dap_usb.c:1299 cmsis_dap_reset_link(): DAP Write Abort
Debug: 437 371 cmsis_dap_usb.c:1308 cmsis_dap_reset_link(): Result 0x00
Debug: 438 372 adi_v5_cmsis_dap.c:233 cmsis_dap_run(): CMSIS-ADI: cmsis_dap_run
Debug: 439 372 target.c:2078 target_read_u32(): address: 0xe0002000, value: 0x0bb11477
Debug: 440 372 target.c:2166 target_write_u32(): address: 0xe0002008, value: 0x00000000
Debug: 441 372 adi_v5_cmsis_dap.c:156 cmsis_dap_queue_ap_write(): CMSIS-ADI: cmsis_dap_queue_ap_write 4 0xe0002008
Info : 442 373 cmsis_dap_usb.c:763 cmsis_dap_swd_write_reg(): CMSIS-DAP: Write error (0x04)
Debug: 443 373 cmsis_dap_usb.c:1206 cmsis_dap_reset_link(): CMSIS-DAP: cmsis_dap_reset_link
Info : 444 373 cmsis_dap_usb.c:1207 cmsis_dap_reset_link(): DAP_SWJ Sequence (reset: 50+ '1' followed by 0)
Debug: 445 376 cmsis_dap_usb.c:1299 cmsis_dap_reset_link(): DAP Write Abort
Debug: 446 376 cmsis_dap_usb.c:1308 cmsis_dap_reset_link(): Result 0x00
Debug: 447 377 adi_v5_cmsis_dap.c:156 cmsis_dap_queue_ap_write(): CMSIS-ADI: cmsis_dap_queue_ap_write 12 0x00000000
Info : 448 378 cmsis_dap_usb.c:763 cmsis_dap_swd_write_reg(): CMSIS-DAP: Write error (0x04)
Debug: 449 378 cmsis_dap_usb.c:1206 cmsis_dap_reset_link(): CMSIS-DAP: cmsis_dap_reset_link
Info : 450 378 cmsis_dap_usb.c:1207 cmsis_dap_reset_link(): DAP_SWJ Sequence (reset: 50+ '1' followed by 0)
Debug: 451 381 cmsis_dap_usb.c:1299 cmsis_dap_reset_link(): DAP Write Abort
Debug: 452 382 cmsis_dap_usb.c:1308 cmsis_dap_reset_link(): Result 0x00
Debug: 453 382 adi_v5_cmsis_dap.c:233 cmsis_dap_run(): CMSIS-ADI: cmsis_dap_run
Debug: 454 382 target.c:2166 target_write_u32(): address: 0xe000200c, value: 0x00000000
Debug: 455 382 adi_v5_cmsis_dap.c:156 cmsis_dap_queue_ap_write(): CMSIS-ADI: cmsis_dap_queue_ap_write 4 0xe000200c
Info : 456 383 cmsis_dap_usb.c:763 cmsis_dap_swd_write_reg(): CMSIS-DAP: Write error (0x04)
Debug: 457 383 cmsis_dap_usb.c:1206 cmsis_dap_reset_link(): CMSIS-DAP: cmsis_dap_reset_link
Info : 458 383 cmsis_dap_usb.c:1207 cmsis_dap_reset_link(): DAP_SWJ Sequence (reset: 50+ '1' followed by 0)
Debug: 459 386 cmsis_dap_usb.c:1299 cmsis_dap_reset_link(): DAP Write Abort
Debug: 460 387 cmsis_dap_usb.c:1308 cmsis_dap_reset_link(): Result 0x00
Debug: 461 387 adi_v5_cmsis_dap.c:156 cmsis_dap_queue_ap_write(): CMSIS-ADI: cmsis_dap_queue_ap_write 12 0x00000000
Info : 462 387 cmsis_dap_usb.c:763 cmsis_dap_swd_write_reg(): CMSIS-DAP: Write error (0x04)
Debug: 463 387 cmsis_dap_usb.c:1206 cmsis_dap_reset_link(): CMSIS-DAP: cmsis_dap_reset_link
Info : 464 387 cmsis_dap_usb.c:1207 cmsis_dap_reset_link(): DAP_SWJ Sequence (reset: 50+ '1' followed by 0)
Debug: 465 391 cmsis_dap_usb.c:1299 cmsis_dap_reset_link(): DAP Write Abort
Debug: 466 392 cmsis_dap_usb.c:1308 cmsis_dap_reset_link(): Result 0x00
Debug: 467 392 adi_v5_cmsis_dap.c:233 cmsis_dap_run(): CMSIS-ADI: cmsis_dap_run
Debug: 468 392 target.c:2166 target_write_u32(): address: 0xe0002010, value: 0x00000000
Debug: 469 392 adi_v5_cmsis_dap.c:156 cmsis_dap_queue_ap_write(): CMSIS-ADI: cmsis_dap_queue_ap_write 4 0xe0002010
Info : 470 393 cmsis_dap_usb.c:763 cmsis_dap_swd_write_reg(): CMSIS-DAP: Write error (0x04)
Debug: 471 393 cmsis_dap_usb.c:1206 cmsis_dap_reset_link(): CMSIS-DAP: cmsis_dap_reset_link
Info : 472 393 cmsis_dap_usb.c:1207 cmsis_dap_reset_link(): DAP_SWJ Sequence (reset: 50+ '1' followed by 0)
Debug: 473 396 cmsis_dap_usb.c:1299 cmsis_dap_reset_link(): DAP Write Abort
Debug: 474 397 cmsis_dap_usb.c:1308 cmsis_dap_reset_link(): Result 0x00
Debug: 475 397 adi_v5_cmsis_dap.c:156 cmsis_dap_queue_ap_write(): CMSIS-ADI: cmsis_dap_queue_ap_write 12 0x00000000
Info : 476 398 cmsis_dap_usb.c:763 cmsis_dap_swd_write_reg(): CMSIS-DAP: Write error (0x04)
Debug: 477 398 cmsis_dap_usb.c:1206 cmsis_dap_reset_link(): CMSIS-DAP: cmsis_dap_reset_link
Info : 478 398 cmsis_dap_usb.c:1207 cmsis_dap_reset_link(): DAP_SWJ Sequence (reset: 50+ '1' followed by 0)
Debug: 479 401 cmsis_dap_usb.c:1299 cmsis_dap_reset_link(): DAP Write Abort
Debug: 480 402 cmsis_dap_usb.c:1308 cmsis_dap_reset_link(): Result 0x00
Debug: 481 402 adi_v5_cmsis_dap.c:233 cmsis_dap_run(): CMSIS-ADI: cmsis_dap_run
Debug: 482 402 target.c:2166 target_write_u32(): address: 0xe0002014, value: 0x00000000
Debug: 483 402 adi_v5_cmsis_dap.c:156 cmsis_dap_queue_ap_write(): CMSIS-ADI: cmsis_dap_queue_ap_write 4 0xe0002014
Info : 484 403 cmsis_dap_usb.c:763 cmsis_dap_swd_write_reg(): CMSIS-DAP: Write error (0x04)
Debug: 485 403 cmsis_dap_usb.c:1206 cmsis_dap_reset_link(): CMSIS-DAP: cmsis_dap_reset_link
Info : 486 403 cmsis_dap_usb.c:1207 cmsis_dap_reset_link(): DAP_SWJ Sequence (reset: 50+ '1' followed by 0)
Debug: 487 406 cmsis_dap_usb.c:1299 cmsis_dap_reset_link(): DAP Write Abort
Debug: 488 407 cmsis_dap_usb.c:1308 cmsis_dap_reset_link(): Result 0x00
Debug: 489 407 adi_v5_cmsis_dap.c:156 cmsis_dap_queue_ap_write(): CMSIS-ADI: cmsis_dap_queue_ap_write 12 0x00000000
Info : 490 407 cmsis_dap_usb.c:763 cmsis_dap_swd_write_reg(): CMSIS-DAP: Write error (0x04)
Debug: 491 407 cmsis_dap_usb.c:1206 cmsis_dap_reset_link(): CMSIS-DAP: cmsis_dap_reset_link
Info : 492 408 cmsis_dap_usb.c:1207 cmsis_dap_reset_link(): DAP_SWJ Sequence (reset: 50+ '1' followed by 0)
Debug: 493 411 cmsis_dap_usb.c:1299 cmsis_dap_reset_link(): DAP Write Abort
Debug: 494 412 cmsis_dap_usb.c:1308 cmsis_dap_reset_link(): Result 0x00
Debug: 495 412 adi_v5_cmsis_dap.c:233 cmsis_dap_run(): CMSIS-ADI: cmsis_dap_run
Debug: 496 412 target.c:2166 target_write_u32(): address: 0xe0002018, value: 0x00000000
Debug: 497 412 adi_v5_cmsis_dap.c:156 cmsis_dap_queue_ap_write(): CMSIS-ADI: cmsis_dap_queue_ap_write 4 0xe0002018
Info : 498 413 cmsis_dap_usb.c:763 cmsis_dap_swd_write_reg(): CMSIS-DAP: Write error (0x04)
Debug: 499 413 cmsis_dap_usb.c:1206 cmsis_dap_reset_link(): CMSIS-DAP: cmsis_dap_reset_link
Info : 500 413 cmsis_dap_usb.c:1207 cmsis_dap_reset_link(): DAP_SWJ Sequence (reset: 50+ '1' followed by 0)
Debug: 501 416 cmsis_dap_usb.c:1299 cmsis_dap_reset_link(): DAP Write Abort
Debug: 502 417 cmsis_dap_usb.c:1308 cmsis_dap_reset_link(): Result 0x00
Debug: 503 417 adi_v5_cmsis_dap.c:156 cmsis_dap_queue_ap_write(): CMSIS-ADI: cmsis_dap_queue_ap_write 12 0x00000000
Info : 504 418 cmsis_dap_usb.c:763 cmsis_dap_swd_write_reg(): CMSIS-DAP: Write error (0x04)
Debug: 505 418 cmsis_dap_usb.c:1206 cmsis_dap_reset_link(): CMSIS-DAP: cmsis_dap_reset_link
Info : 506 418 cmsis_dap_usb.c:1207 cmsis_dap_reset_link(): DAP_SWJ Sequence (reset: 50+ '1' followed by 0)
Debug: 507 421 cmsis_dap_usb.c:1299 cmsis_dap_reset_link(): DAP Write Abort
Debug: 508 422 cmsis_dap_usb.c:1308 cmsis_dap_reset_link(): Result 0x00
Debug: 509 422 adi_v5_cmsis_dap.c:233 cmsis_dap_run(): CMSIS-ADI: cmsis_dap_run
Debug: 510 422 target.c:2166 target_write_u32(): address: 0xe000201c, value: 0x00000000
Debug: 511 422 adi_v5_cmsis_dap.c:156 cmsis_dap_queue_ap_write(): CMSIS-ADI: cmsis_dap_queue_ap_write 4 0xe000201c
Info : 512 423 cmsis_dap_usb.c:763 cmsis_dap_swd_write_reg(): CMSIS-DAP: Write error (0x04)
Debug: 513 423 cmsis_dap_usb.c:1206 cmsis_dap_reset_link(): CMSIS-DAP: cmsis_dap_reset_link
Info : 514 423 cmsis_dap_usb.c:1207 cmsis_dap_reset_link(): DAP_SWJ Sequence (reset: 50+ '1' followed by 0)
Debug: 515 426 cmsis_dap_usb.c:1299 cmsis_dap_reset_link(): DAP Write Abort
Debug: 516 427 cmsis_dap_usb.c:1308 cmsis_dap_reset_link(): Result 0x00
Debug: 517 427 adi_v5_cmsis_dap.c:156 cmsis_dap_queue_ap_write(): CMSIS-ADI: cmsis_dap_queue_ap_write 12 0x00000000
Info : 518 428 cmsis_dap_usb.c:763 cmsis_dap_swd_write_reg(): CMSIS-DAP: Write error (0x04)
Debug: 519 428 cmsis_dap_usb.c:1206 cmsis_dap_reset_link(): CMSIS-DAP: cmsis_dap_reset_link
Info : 520 428 cmsis_dap_usb.c:1207 cmsis_dap_reset_link(): DAP_SWJ Sequence (reset: 50+ '1' followed by 0)
Debug: 521 431 cmsis_dap_usb.c:1299 cmsis_dap_reset_link(): DAP Write Abort
Debug: 522 432 cmsis_dap_usb.c:1308 cmsis_dap_reset_link(): Result 0x00
Debug: 523 432 adi_v5_cmsis_dap.c:233 cmsis_dap_run(): CMSIS-ADI: cmsis_dap_run
Debug: 524 432 target.c:2166 target_write_u32(): address: 0xe0002020, value: 0x00000000
Debug: 525 432 adi_v5_cmsis_dap.c:156 cmsis_dap_queue_ap_write(): CMSIS-ADI: cmsis_dap_queue_ap_write 4 0xe0002020
Info : 526 433 cmsis_dap_usb.c:763 cmsis_dap_swd_write_reg(): CMSIS-DAP: Write error (0x04)
Debug: 527 433 cmsis_dap_usb.c:1206 cmsis_dap_reset_link(): CMSIS-DAP: cmsis_dap_reset_link
Info : 528 433 cmsis_dap_usb.c:1207 cmsis_dap_reset_link(): DAP_SWJ Sequence (reset: 50+ '1' followed by 0)
Debug: 529 436 cmsis_dap_usb.c:1299 cmsis_dap_reset_link(): DAP Write Abort
Debug: 530 436 cmsis_dap_usb.c:1308 cmsis_dap_reset_link(): Result 0x00
Debug: 531 437 adi_v5_cmsis_dap.c:156 cmsis_dap_queue_ap_write(): CMSIS-ADI: cmsis_dap_queue_ap_write 12 0x00000000
Info : 532 438 cmsis_dap_usb.c:763 cmsis_dap_swd_write_reg(): CMSIS-DAP: Write error (0x04)
Debug: 533 438 cmsis_dap_usb.c:1206 cmsis_dap_reset_link(): CMSIS-DAP: cmsis_dap_reset_link
Info : 534 438 cmsis_dap_usb.c:1207 cmsis_dap_reset_link(): DAP_SWJ Sequence (reset: 50+ '1' followed by 0)
Debug: 535 441 cmsis_dap_usb.c:1299 cmsis_dap_reset_link(): DAP Write Abort
Debug: 536 442 cmsis_dap_usb.c:1308 cmsis_dap_reset_link(): Result 0x00
Debug: 537 443 adi_v5_cmsis_dap.c:233 cmsis_dap_run(): CMSIS-ADI: cmsis_dap_run
Debug: 538 443 target.c:2166 target_write_u32(): address: 0xe0002024, value: 0x00000000
Debug: 539 443 adi_v5_cmsis_dap.c:156 cmsis_dap_queue_ap_write(): CMSIS-ADI: cmsis_dap_queue_ap_write 4 0xe0002024
Info : 540 443 cmsis_dap_usb.c:763 cmsis_dap_swd_write_reg(): CMSIS-DAP: Write error (0x04)
Debug: 541 443 cmsis_dap_usb.c:1206 cmsis_dap_reset_link(): CMSIS-DAP: cmsis_dap_reset_link
Info : 542 443 cmsis_dap_usb.c:1207 cmsis_dap_reset_link(): DAP_SWJ Sequence (reset: 50+ '1' followed by 0)
Debug: 543 446 cmsis_dap_usb.c:1299 cmsis_dap_reset_link(): DAP Write Abort
Debug: 544 447 cmsis_dap_usb.c:1308 cmsis_dap_reset_link(): Result 0x00
Debug: 545 447 adi_v5_cmsis_dap.c:156 cmsis_dap_queue_ap_write(): CMSIS-ADI: cmsis_dap_queue_ap_write 12 0x00000000
Info : 546 448 cmsis_dap_usb.c:763 cmsis_dap_swd_write_reg(): CMSIS-DAP: Write error (0x04)
Debug: 547 448 cmsis_dap_usb.c:1206 cmsis_dap_reset_link(): CMSIS-DAP: cmsis_dap_reset_link
Info : 548 448 cmsis_dap_usb.c:1207 cmsis_dap_reset_link(): DAP_SWJ Sequence (reset: 50+ '1' followed by 0)
Debug: 549 451 cmsis_dap_usb.c:1299 cmsis_dap_reset_link(): DAP Write Abort
Debug: 550 452 cmsis_dap_usb.c:1308 cmsis_dap_reset_link(): Result 0x00
Debug: 551 453 adi_v5_cmsis_dap.c:233 cmsis_dap_run(): CMSIS-ADI: cmsis_dap_run
Debug: 552 453 target.c:2166 target_write_u32(): address: 0xe0002028, value: 0x00000000
Debug: 553 453 adi_v5_cmsis_dap.c:156 cmsis_dap_queue_ap_write(): CMSIS-ADI: cmsis_dap_queue_ap_write 4 0xe0002028
Info : 554 453 cmsis_dap_usb.c:763 cmsis_dap_swd_write_reg(): CMSIS-DAP: Write error (0x04)
Debug: 555 453 cmsis_dap_usb.c:1206 cmsis_dap_reset_link(): CMSIS-DAP: cmsis_dap_reset_link
Info : 556 453 cmsis_dap_usb.c:1207 cmsis_dap_reset_link(): DAP_SWJ Sequence (reset: 50+ '1' followed by 0)
Debug: 557 456 cmsis_dap_usb.c:1299 cmsis_dap_reset_link(): DAP Write Abort
Debug: 558 457 cmsis_dap_usb.c:1308 cmsis_dap_reset_link(): Result 0x00
Debug: 559 458 adi_v5_cmsis_dap.c:156 cmsis_dap_queue_ap_write(): CMSIS-ADI: cmsis_dap_queue_ap_write 12 0x00000000
Info : 560 458 cmsis_dap_usb.c:763 cmsis_dap_swd_write_reg(): CMSIS-DAP: Write error (0x04)
Debug: 561 458 cmsis_dap_usb.c:1206 cmsis_dap_reset_link(): CMSIS-DAP: cmsis_dap_reset_link
Info : 562 458 cmsis_dap_usb.c:1207 cmsis_dap_reset_link(): DAP_SWJ Sequence (reset: 50+ '1' followed by 0)
Debug: 563 461 cmsis_dap_usb.c:1299 cmsis_dap_reset_link(): DAP Write Abort
Debug: 564 462 cmsis_dap_usb.c:1308 cmsis_dap_reset_link(): Result 0x00
Debug: 565 463 adi_v5_cmsis_dap.c:233 cmsis_dap_run(): CMSIS-ADI: cmsis_dap_run
Debug: 566 463 target.c:2166 target_write_u32(): address: 0xe000202c, value: 0x00000000
Debug: 567 463 adi_v5_cmsis_dap.c:156 cmsis_dap_queue_ap_write(): CMSIS-ADI: cmsis_dap_queue_ap_write 4 0xe000202c
Info : 568 463 cmsis_dap_usb.c:763 cmsis_dap_swd_write_reg(): CMSIS-DAP: Write error (0x04)
Debug: 569 463 cmsis_dap_usb.c:1206 cmsis_dap_reset_link(): CMSIS-DAP: cmsis_dap_reset_link
Info : 570 463 cmsis_dap_usb.c:1207 cmsis_dap_reset_link(): DAP_SWJ Sequence (reset: 50+ '1' followed by 0)
Debug: 571 466 cmsis_dap_usb.c:1299 cmsis_dap_reset_link(): DAP Write Abort
Debug: 572 467 cmsis_dap_usb.c:1308 cmsis_dap_reset_link(): Result 0x00
Debug: 573 467 adi_v5_cmsis_dap.c:156 cmsis_dap_queue_ap_write(): CMSIS-ADI: cmsis_dap_queue_ap_write 12 0x00000000
Info : 574 468 cmsis_dap_usb.c:763 cmsis_dap_swd_write_reg(): CMSIS-DAP: Write error (0x04)
Debug: 575 468 cmsis_dap_usb.c:1206 cmsis_dap_reset_link(): CMSIS-DAP: cmsis_dap_reset_link
Info : 576 468 cmsis_dap_usb.c:1207 cmsis_dap_reset_link(): DAP_SWJ Sequence (reset: 50+ '1' followed by 0)
Debug: 577 471 cmsis_dap_usb.c:1299 cmsis_dap_reset_link(): DAP Write Abort
Debug: 578 472 cmsis_dap_usb.c:1308 cmsis_dap_reset_link(): Result 0x00
Debug: 579 473 adi_v5_cmsis_dap.c:233 cmsis_dap_run(): CMSIS-ADI: cmsis_dap_run
Debug: 580 473 target.c:2166 target_write_u32(): address: 0xe0002030, value: 0x00000000
Debug: 581 473 adi_v5_cmsis_dap.c:156 cmsis_dap_queue_ap_write(): CMSIS-ADI: cmsis_dap_queue_ap_write 4 0xe0002030
Info : 582 473 cmsis_dap_usb.c:763 cmsis_dap_swd_write_reg(): CMSIS-DAP: Write error (0x04)
Debug: 583 473 cmsis_dap_usb.c:1206 cmsis_dap_reset_link(): CMSIS-DAP: cmsis_dap_reset_link
Info : 584 473 cmsis_dap_usb.c:1207 cmsis_dap_reset_link(): DAP_SWJ Sequence (reset: 50+ '1' followed by 0)
Debug: 585 477 cmsis_dap_usb.c:1299 cmsis_dap_reset_link(): DAP Write Abort
Debug: 586 477 cmsis_dap_usb.c:1308 cmsis_dap_reset_link(): Result 0x00
Debug: 587 478 adi_v5_cmsis_dap.c:156 cmsis_dap_queue_ap_write(): CMSIS-ADI: cmsis_dap_queue_ap_write 12 0x00000000
Info : 588 478 cmsis_dap_usb.c:763 cmsis_dap_swd_write_reg(): CMSIS-DAP: Write error (0x04)
Debug: 589 478 cmsis_dap_usb.c:1206 cmsis_dap_reset_link(): CMSIS-DAP: cmsis_dap_reset_link
Info : 590 478 cmsis_dap_usb.c:1207 cmsis_dap_reset_link(): DAP_SWJ Sequence (reset: 50+ '1' followed by 0)
Debug: 591 481 cmsis_dap_usb.c:1299 cmsis_dap_reset_link(): DAP Write Abort
Debug: 592 481 cmsis_dap_usb.c:1308 cmsis_dap_reset_link(): Result 0x00
Debug: 593 483 adi_v5_cmsis_dap.c:233 cmsis_dap_run(): CMSIS-ADI: cmsis_dap_run
Debug: 594 483 target.c:2166 target_write_u32(): address: 0xe0002034, value: 0x00000000
Debug: 595 483 adi_v5_cmsis_dap.c:156 cmsis_dap_queue_ap_write(): CMSIS-ADI: cmsis_dap_queue_ap_write 4 0xe0002034
Info : 596 483 cmsis_dap_usb.c:763 cmsis_dap_swd_write_reg(): CMSIS-DAP: Write error (0x04)
Debug: 597 483 cmsis_dap_usb.c:1206 cmsis_dap_reset_link(): CMSIS-DAP: cmsis_dap_reset_link
Info : 598 483 cmsis_dap_usb.c:1207 cmsis_dap_reset_link(): DAP_SWJ Sequence (reset: 50+ '1' followed by 0)
Debug: 599 487 cmsis_dap_usb.c:1299 cmsis_dap_reset_link(): DAP Write Abort
Debug: 600 487 cmsis_dap_usb.c:1308 cmsis_dap_reset_link(): Result 0x00
Debug: 601 487 adi_v5_cmsis_dap.c:156 cmsis_dap_queue_ap_write(): CMSIS-ADI: cmsis_dap_queue_ap_write 12 0x00000000
Info : 602 488 cmsis_dap_usb.c:763 cmsis_dap_swd_write_reg(): CMSIS-DAP: Write error (0x04)
Debug: 603 488 cmsis_dap_usb.c:1206 cmsis_dap_reset_link(): CMSIS-DAP: cmsis_dap_reset_link
Info : 604 488 cmsis_dap_usb.c:1207 cmsis_dap_reset_link(): DAP_SWJ Sequence (reset: 50+ '1' followed by 0)
Debug: 605 492 cmsis_dap_usb.c:1299 cmsis_dap_reset_link(): DAP Write Abort
Debug: 606 492 cmsis_dap_usb.c:1308 cmsis_dap_reset_link(): Result 0x00
Debug: 607 493 adi_v5_cmsis_dap.c:233 cmsis_dap_run(): CMSIS-ADI: cmsis_dap_run
Debug: 608 493 target.c:2166 target_write_u32(): address: 0xe0002038, value: 0x00000000
Debug: 609 493 adi_v5_cmsis_dap.c:156 cmsis_dap_queue_ap_write(): CMSIS-ADI: cmsis_dap_queue_ap_write 4 0xe0002038
Info : 610 493 cmsis_dap_usb.c:763 cmsis_dap_swd_write_reg(): CMSIS-DAP: Write error (0x04)
Debug: 611 493 cmsis_dap_usb.c:1206 cmsis_dap_reset_link(): CMSIS-DAP: cmsis_dap_reset_link
Info : 612 493 cmsis_dap_usb.c:1207 cmsis_dap_reset_link(): DAP_SWJ Sequence (reset: 50+ '1' followed by 0)
Debug: 613 497 cmsis_dap_usb.c:1299 cmsis_dap_reset_link(): DAP Write Abort
Debug: 614 497 cmsis_dap_usb.c:1308 cmsis_dap_reset_link(): Result 0x00
Debug: 615 498 adi_v5_cmsis_dap.c:156 cmsis_dap_queue_ap_write(): CMSIS-ADI: cmsis_dap_queue_ap_write 12 0x00000000
Info : 616 498 cmsis_dap_usb.c:763 cmsis_dap_swd_write_reg(): CMSIS-DAP: Write error (0x04)
Debug: 617 498 cmsis_dap_usb.c:1206 cmsis_dap_reset_link(): CMSIS-DAP: cmsis_dap_reset_link
Info : 618 498 cmsis_dap_usb.c:1207 cmsis_dap_reset_link(): DAP_SWJ Sequence (reset: 50+ '1' followed by 0)
Debug: 619 502 cmsis_dap_usb.c:1299 cmsis_dap_reset_link(): DAP Write Abort
Debug: 620 502 cmsis_dap_usb.c:1308 cmsis_dap_reset_link(): Result 0x00
Debug: 621 503 adi_v5_cmsis_dap.c:233 cmsis_dap_run(): CMSIS-ADI: cmsis_dap_run
Debug: 622 503 target.c:2166 target_write_u32(): address: 0xe000203c, value: 0x00000000
Debug: 623 503 adi_v5_cmsis_dap.c:156 cmsis_dap_queue_ap_write(): CMSIS-ADI: cmsis_dap_queue_ap_write 4 0xe000203c
Info : 624 504 cmsis_dap_usb.c:763 cmsis_dap_swd_write_reg(): CMSIS-DAP: Write error (0x04)
Debug: 625 504 cmsis_dap_usb.c:1206 cmsis_dap_reset_link(): CMSIS-DAP: cmsis_dap_reset_link
Info : 626 504 cmsis_dap_usb.c:1207 cmsis_dap_reset_link(): DAP_SWJ Sequence (reset: 50+ '1' followed by 0)
Debug: 627 507 cmsis_dap_usb.c:1299 cmsis_dap_reset_link(): DAP Write Abort
Debug: 628 507 cmsis_dap_usb.c:1308 cmsis_dap_reset_link(): Result 0x00
Debug: 629 507 adi_v5_cmsis_dap.c:156 cmsis_dap_queue_ap_write(): CMSIS-ADI: cmsis_dap_queue_ap_write 12 0x00000000
Info : 630 509 cmsis_dap_usb.c:763 cmsis_dap_swd_write_reg(): CMSIS-DAP: Write error (0x04)
Debug: 631 509 cmsis_dap_usb.c:1206 cmsis_dap_reset_link(): CMSIS-DAP: cmsis_dap_reset_link
Info : 632 509 cmsis_dap_usb.c:1207 cmsis_dap_reset_link(): DAP_SWJ Sequence (reset: 50+ '1' followed by 0)
Debug: 633 512 cmsis_dap_usb.c:1299 cmsis_dap_reset_link(): DAP Write Abort
Debug: 634 512 cmsis_dap_usb.c:1308 cmsis_dap_reset_link(): Result 0x00
Debug: 635 513 adi_v5_cmsis_dap.c:233 cmsis_dap_run(): CMSIS-ADI: cmsis_dap_run
Debug: 636 513 target.c:2166 target_write_u32(): address: 0xe0002040, value: 0x00000000
Debug: 637 513 adi_v5_cmsis_dap.c:156 cmsis_dap_queue_ap_write(): CMSIS-ADI: cmsis_dap_queue_ap_write 4 0xe0002040
Info : 638 514 cmsis_dap_usb.c:763 cmsis_dap_swd_write_reg(): CMSIS-DAP: Write error (0x04)
Debug: 639 514 cmsis_dap_usb.c:1206 cmsis_dap_reset_link(): CMSIS-DAP: cmsis_dap_reset_link
Info : 640 514 cmsis_dap_usb.c:1207 cmsis_dap_reset_link(): DAP_SWJ Sequence (reset: 50+ '1' followed by 0)
Debug: 641 517 cmsis_dap_usb.c:1299 cmsis_dap_reset_link(): DAP Write Abort
Debug: 642 517 cmsis_dap_usb.c:1308 cmsis_dap_reset_link(): Result 0x00
Debug: 643 518 adi_v5_cmsis_dap.c:156 cmsis_dap_queue_ap_write(): CMSIS-ADI: cmsis_dap_queue_ap_write 12 0x00000000
Info : 644 519 cmsis_dap_usb.c:763 cmsis_dap_swd_write_reg(): CMSIS-DAP: Write error (0x04)
Debug: 645 519 cmsis_dap_usb.c:1206 cmsis_dap_reset_link(): CMSIS-DAP: cmsis_dap_reset_link
Info : 646 519 cmsis_dap_usb.c:1207 cmsis_dap_reset_link(): DAP_SWJ Sequence (reset: 50+ '1' followed by 0)
Debug: 647 522 cmsis_dap_usb.c:1299 cmsis_dap_reset_link(): DAP Write Abort
Debug: 648 523 cmsis_dap_usb.c:1308 cmsis_dap_reset_link(): Result 0x00
Debug: 649 523 adi_v5_cmsis_dap.c:233 cmsis_dap_run(): CMSIS-ADI: cmsis_dap_run
Debug: 650 523 target.c:2166 target_write_u32(): address: 0xe0002044, value: 0x00000000
Debug: 651 523 adi_v5_cmsis_dap.c:156 cmsis_dap_queue_ap_write(): CMSIS-ADI: cmsis_dap_queue_ap_write 4 0xe0002044
Info : 652 524 cmsis_dap_usb.c:763 cmsis_dap_swd_write_reg(): CMSIS-DAP: Write error (0x04)
Debug: 653 524 cmsis_dap_usb.c:1206 cmsis_dap_reset_link(): CMSIS-DAP: cmsis_dap_reset_link
Info : 654 524 cmsis_dap_usb.c:1207 cmsis_dap_reset_link(): DAP_SWJ Sequence (reset: 50+ '1' followed by 0)
Debug: 655 527 cmsis_dap_usb.c:1299 cmsis_dap_reset_link(): DAP Write Abort
Debug: 656 527 cmsis_dap_usb.c:1308 cmsis_dap_reset_link(): Result 0x00
Debug: 657 528 adi_v5_cmsis_dap.c:156 cmsis_dap_queue_ap_write(): CMSIS-ADI: cmsis_dap_queue_ap_write 12 0x00000000
Info : 658 528 cmsis_dap_usb.c:763 cmsis_dap_swd_write_reg(): CMSIS-DAP: Write error (0x04)
Debug: 659 528 cmsis_dap_usb.c:1206 cmsis_dap_reset_link(): CMSIS-DAP: cmsis_dap_reset_link
Info : 660 528 cmsis_dap_usb.c:1207 cmsis_dap_reset_link(): DAP_SWJ Sequence (reset: 50+ '1' followed by 0)
Debug: 661 532 cmsis_dap_usb.c:1299 cmsis_dap_reset_link(): DAP Write Abort
Debug: 662 532 cmsis_dap_usb.c:1308 cmsis_dap_reset_link(): Result 0x00
Debug: 663 533 adi_v5_cmsis_dap.c:233 cmsis_dap_run(): CMSIS-ADI: cmsis_dap_run
Debug: 664 533 target.c:2166 target_write_u32(): address: 0xe0002048, value: 0x00000000
Debug: 665 533 adi_v5_cmsis_dap.c:156 cmsis_dap_queue_ap_write(): CMSIS-ADI: cmsis_dap_queue_ap_write 4 0xe0002048
Info : 666 534 cmsis_dap_usb.c:763 cmsis_dap_swd_write_reg(): CMSIS-DAP: Write error (0x04)
Debug: 667 534 cmsis_dap_usb.c:1206 cmsis_dap_reset_link(): CMSIS-DAP: cmsis_dap_reset_link
Info : 668 534 cmsis_dap_usb.c:1207 cmsis_dap_reset_link(): DAP_SWJ Sequence (reset: 50+ '1' followed by 0)
Debug: 669 537 cmsis_dap_usb.c:1299 cmsis_dap_reset_link(): DAP Write Abort
Debug: 670 538 cmsis_dap_usb.c:1308 cmsis_dap_reset_link(): Result 0x00
Debug: 671 538 adi_v5_cmsis_dap.c:156 cmsis_dap_queue_ap_write(): CMSIS-ADI: cmsis_dap_queue_ap_write 12 0x00000000
Info : 672 539 cmsis_dap_usb.c:763 cmsis_dap_swd_write_reg(): CMSIS-DAP: Write error (0x04)
Debug: 673 539 cmsis_dap_usb.c:1206 cmsis_dap_reset_link(): CMSIS-DAP: cmsis_dap_reset_link
Info : 674 539 cmsis_dap_usb.c:1207 cmsis_dap_reset_link(): DAP_SWJ Sequence (reset: 50+ '1' followed by 0)
Debug: 675 542 cmsis_dap_usb.c:1299 cmsis_dap_reset_link(): DAP Write Abort
Debug: 676 542 cmsis_dap_usb.c:1308 cmsis_dap_reset_link(): Result 0x00
Debug: 677 543 adi_v5_cmsis_dap.c:233 cmsis_dap_run(): CMSIS-ADI: cmsis_dap_run
Debug: 678 543 target.c:2166 target_write_u32(): address: 0xe000204c, value: 0x00000000
Debug: 679 543 adi_v5_cmsis_dap.c:156 cmsis_dap_queue_ap_write(): CMSIS-ADI: cmsis_dap_queue_ap_write 4 0xe000204c
Info : 680 543 cmsis_dap_usb.c:763 cmsis_dap_swd_write_reg(): CMSIS-DAP: Write error (0x04)
Debug: 681 543 cmsis_dap_usb.c:1206 cmsis_dap_reset_link(): CMSIS-DAP: cmsis_dap_reset_link
Info : 682 543 cmsis_dap_usb.c:1207 cmsis_dap_reset_link(): DAP_SWJ Sequence (reset: 50+ '1' followed by 0)
Debug: 683 547 cmsis_dap_usb.c:1299 cmsis_dap_reset_link(): DAP Write Abort
Debug: 684 547 cmsis_dap_usb.c:1308 cmsis_dap_reset_link(): Result 0x00
Debug: 685 548 adi_v5_cmsis_dap.c:156 cmsis_dap_queue_ap_write(): CMSIS-ADI: cmsis_dap_queue_ap_write 12 0x00000000
Info : 686 549 cmsis_dap_usb.c:763 cmsis_dap_swd_write_reg(): CMSIS-DAP: Write error (0x04)
Debug: 687 549 cmsis_dap_usb.c:1206 cmsis_dap_reset_link(): CMSIS-DAP: cmsis_dap_reset_link
Info : 688 549 cmsis_dap_usb.c:1207 cmsis_dap_reset_link(): DAP_SWJ Sequence (reset: 50+ '1' followed by 0)
Debug: 689 552 cmsis_dap_usb.c:1299 cmsis_dap_reset_link(): DAP Write Abort
Debug: 690 553 cmsis_dap_usb.c:1308 cmsis_dap_reset_link(): Result 0x00
Debug: 691 553 adi_v5_cmsis_dap.c:233 cmsis_dap_run(): CMSIS-ADI: cmsis_dap_run
Debug: 692 553 target.c:2166 target_write_u32(): address: 0xe0002050, value: 0x00000000
Debug: 693 553 adi_v5_cmsis_dap.c:156 cmsis_dap_queue_ap_write(): CMSIS-ADI: cmsis_dap_queue_ap_write 4 0xe0002050
Info : 694 554 cmsis_dap_usb.c:763 cmsis_dap_swd_write_reg(): CMSIS-DAP: Write error (0x04)
Debug: 695 554 cmsis_dap_usb.c:1206 cmsis_dap_reset_link(): CMSIS-DAP: cmsis_dap_reset_link
Info : 696 554 cmsis_dap_usb.c:1207 cmsis_dap_reset_link(): DAP_SWJ Sequence (reset: 50+ '1' followed by 0)
Debug: 697 557 cmsis_dap_usb.c:1299 cmsis_dap_reset_link(): DAP Write Abort
Debug: 698 557 cmsis_dap_usb.c:1308 cmsis_dap_reset_link(): Result 0x00
Debug: 699 558 adi_v5_cmsis_dap.c:156 cmsis_dap_queue_ap_write(): CMSIS-ADI: cmsis_dap_queue_ap_write 12 0x00000000
Info : 700 558 cmsis_dap_usb.c:763 cmsis_dap_swd_write_reg(): CMSIS-DAP: Write error (0x04)
Debug: 701 558 cmsis_dap_usb.c:1206 cmsis_dap_reset_link(): CMSIS-DAP: cmsis_dap_reset_link
Info : 702 558 cmsis_dap_usb.c:1207 cmsis_dap_reset_link(): DAP_SWJ Sequence (reset: 50+ '1' followed by 0)
Debug: 703 562 cmsis_dap_usb.c:1299 cmsis_dap_reset_link(): DAP Write Abort
Debug: 704 563 cmsis_dap_usb.c:1308 cmsis_dap_reset_link(): Result 0x00
Debug: 705 563 adi_v5_cmsis_dap.c:233 cmsis_dap_run(): CMSIS-ADI: cmsis_dap_run
Debug: 706 563 target.c:2166 target_write_u32(): address: 0xe0002054, value: 0x00000000
Debug: 707 563 adi_v5_cmsis_dap.c:156 cmsis_dap_queue_ap_write(): CMSIS-ADI: cmsis_dap_queue_ap_write 4 0xe0002054
Info : 708 564 cmsis_dap_usb.c:763 cmsis_dap_swd_write_reg(): CMSIS-DAP: Write error (0x04)
Debug: 709 564 cmsis_dap_usb.c:1206 cmsis_dap_reset_link(): CMSIS-DAP: cmsis_dap_reset_link
Info : 710 564 cmsis_dap_usb.c:1207 cmsis_dap_reset_link(): DAP_SWJ Sequence (reset: 50+ '1' followed by 0)
Debug: 711 567 cmsis_dap_usb.c:1299 cmsis_dap_reset_link(): DAP Write Abort
Debug: 712 567 cmsis_dap_usb.c:1308 cmsis_dap_reset_link(): Result 0x00
Debug: 713 568 adi_v5_cmsis_dap.c:156 cmsis_dap_queue_ap_write(): CMSIS-ADI: cmsis_dap_queue_ap_write 12 0x00000000
Info : 714 569 cmsis_dap_usb.c:763 cmsis_dap_swd_write_reg(): CMSIS-DAP: Write error (0x04)
Debug: 715 569 cmsis_dap_usb.c:1206 cmsis_dap_reset_link(): CMSIS-DAP: cmsis_dap_reset_link
Info : 716 569 cmsis_dap_usb.c:1207 cmsis_dap_reset_link(): DAP_SWJ Sequence (reset: 50+ '1' followed by 0)
Debug: 717 572 cmsis_dap_usb.c:1299 cmsis_dap_reset_link(): DAP Write Abort
Debug: 718 572 cmsis_dap_usb.c:1308 cmsis_dap_reset_link(): Result 0x00
Debug: 719 572 adi_v5_cmsis_dap.c:233 cmsis_dap_run(): CMSIS-ADI: cmsis_dap_run
Debug: 720 572 target.c:2166 target_write_u32(): address: 0xe0002058, value: 0x00000000
Debug: 721 572 adi_v5_cmsis_dap.c:156 cmsis_dap_queue_ap_write(): CMSIS-ADI: cmsis_dap_queue_ap_write 4 0xe0002058
Info : 722 574 cmsis_dap_usb.c:763 cmsis_dap_swd_write_reg(): CMSIS-DAP: Write error (0x04)
Debug: 723 574 cmsis_dap_usb.c:1206 cmsis_dap_reset_link(): CMSIS-DAP: cmsis_dap_reset_link
Info : 724 574 cmsis_dap_usb.c:1207 cmsis_dap_reset_link(): DAP_SWJ Sequence (reset: 50+ '1' followed by 0)
Debug: 725 577 cmsis_dap_usb.c:1299 cmsis_dap_reset_link(): DAP Write Abort
Debug: 726 578 cmsis_dap_usb.c:1308 cmsis_dap_reset_link(): Result 0x00
Debug: 727 578 adi_v5_cmsis_dap.c:156 cmsis_dap_queue_ap_write(): CMSIS-ADI: cmsis_dap_queue_ap_write 12 0x00000000
Info : 728 579 cmsis_dap_usb.c:763 cmsis_dap_swd_write_reg(): CMSIS-DAP: Write error (0x04)
Debug: 729 579 cmsis_dap_usb.c:1206 cmsis_dap_reset_link(): CMSIS-DAP: cmsis_dap_reset_link
Info : 730 579 cmsis_dap_usb.c:1207 cmsis_dap_reset_link(): DAP_SWJ Sequence (reset: 50+ '1' followed by 0)
Debug: 731 582 cmsis_dap_usb.c:1299 cmsis_dap_reset_link(): DAP Write Abort
Debug: 732 583 cmsis_dap_usb.c:1308 cmsis_dap_reset_link(): Result 0x00
Debug: 733 583 adi_v5_cmsis_dap.c:233 cmsis_dap_run(): CMSIS-ADI: cmsis_dap_run
Debug: 734 583 target.c:2166 target_write_u32(): address: 0xe000205c, value: 0x00000000
Debug: 735 583 adi_v5_cmsis_dap.c:156 cmsis_dap_queue_ap_write(): CMSIS-ADI: cmsis_dap_queue_ap_write 4 0xe000205c
Info : 736 584 cmsis_dap_usb.c:763 cmsis_dap_swd_write_reg(): CMSIS-DAP: Write error (0x04)
Debug: 737 584 cmsis_dap_usb.c:1206 cmsis_dap_reset_link(): CMSIS-DAP: cmsis_dap_reset_link
Info : 738 584 cmsis_dap_usb.c:1207 cmsis_dap_reset_link(): DAP_SWJ Sequence (reset: 50+ '1' followed by 0)
Debug: 739 587 cmsis_dap_usb.c:1299 cmsis_dap_reset_link(): DAP Write Abort
Debug: 740 587 cmsis_dap_usb.c:1308 cmsis_dap_reset_link(): Result 0x00
Debug: 741 588 adi_v5_cmsis_dap.c:156 cmsis_dap_queue_ap_write(): CMSIS-ADI: cmsis_dap_queue_ap_write 12 0x00000000
Info : 742 589 cmsis_dap_usb.c:763 cmsis_dap_swd_write_reg(): CMSIS-DAP: Write error (0x04)
Debug: 743 589 cmsis_dap_usb.c:1206 cmsis_dap_reset_link(): CMSIS-DAP: cmsis_dap_reset_link
Info : 744 589 cmsis_dap_usb.c:1207 cmsis_dap_reset_link(): DAP_SWJ Sequence (reset: 50+ '1' followed by 0)
Debug: 745 592 cmsis_dap_usb.c:1299 cmsis_dap_reset_link(): DAP Write Abort
Debug: 746 593 cmsis_dap_usb.c:1308 cmsis_dap_reset_link(): Result 0x00
Debug: 747 593 adi_v5_cmsis_dap.c:233 cmsis_dap_run(): CMSIS-ADI: cmsis_dap_run
Debug: 748 593 target.c:2166 target_write_u32(): address: 0xe0002060, value: 0x00000000
Debug: 749 593 adi_v5_cmsis_dap.c:156 cmsis_dap_queue_ap_write(): CMSIS-ADI: cmsis_dap_queue_ap_write 4 0xe0002060
Info : 750 594 cmsis_dap_usb.c:763 cmsis_dap_swd_write_reg(): CMSIS-DAP: Write error (0x04)
Debug: 751 594 cmsis_dap_usb.c:1206 cmsis_dap_reset_link(): CMSIS-DAP: cmsis_dap_reset_link
Info : 752 594 cmsis_dap_usb.c:1207 cmsis_dap_reset_link(): DAP_SWJ Sequence (reset: 50+ '1' followed by 0)
Debug: 753 597 cmsis_dap_usb.c:1299 cmsis_dap_reset_link(): DAP Write Abort
Debug: 754 598 cmsis_dap_usb.c:1308 cmsis_dap_reset_link(): Result 0x00
Debug: 755 599 adi_v5_cmsis_dap.c:156 cmsis_dap_queue_ap_write(): CMSIS-ADI: cmsis_dap_queue_ap_write 12 0x00000000
Info : 756 599 cmsis_dap_usb.c:763 cmsis_dap_swd_write_reg(): CMSIS-DAP: Write error (0x04)
Debug: 757 599 cmsis_dap_usb.c:1206 cmsis_dap_reset_link(): CMSIS-DAP: cmsis_dap_reset_link
Info : 758 599 cmsis_dap_usb.c:1207 cmsis_dap_reset_link(): DAP_SWJ Sequence (reset: 50+ '1' followed by 0)
Debug: 759 602 cmsis_dap_usb.c:1299 cmsis_dap_reset_link(): DAP Write Abort
Debug: 760 603 cmsis_dap_usb.c:1308 cmsis_dap_reset_link(): Result 0x00
Debug: 761 603 adi_v5_cmsis_dap.c:233 cmsis_dap_run(): CMSIS-ADI: cmsis_dap_run
Debug: 762 603 target.c:2166 target_write_u32(): address: 0xe0002064, value: 0x00000000
Debug: 763 603 adi_v5_cmsis_dap.c:156 cmsis_dap_queue_ap_write(): CMSIS-ADI: cmsis_dap_queue_ap_write 4 0xe0002064
Info : 764 603 cmsis_dap_usb.c:763 cmsis_dap_swd_write_reg(): CMSIS-DAP: Write error (0x04)
Debug: 765 603 cmsis_dap_usb.c:1206 cmsis_dap_reset_link(): CMSIS-DAP: cmsis_dap_reset_link
Info : 766 603 cmsis_dap_usb.c:1207 cmsis_dap_reset_link(): DAP_SWJ Sequence (reset: 50+ '1' followed by 0)
Debug: 767 607 cmsis_dap_usb.c:1299 cmsis_dap_reset_link(): DAP Write Abort
Debug: 768 608 cmsis_dap_usb.c:1308 cmsis_dap_reset_link(): Result 0x00
Debug: 769 609 adi_v5_cmsis_dap.c:156 cmsis_dap_queue_ap_write(): CMSIS-ADI: cmsis_dap_queue_ap_write 12 0x00000000
Info : 770 609 cmsis_dap_usb.c:763 cmsis_dap_swd_write_reg(): CMSIS-DAP: Write error (0x04)
Debug: 771 609 cmsis_dap_usb.c:1206 cmsis_dap_reset_link(): CMSIS-DAP: cmsis_dap_reset_link
Info : 772 609 cmsis_dap_usb.c:1207 cmsis_dap_reset_link(): DAP_SWJ Sequence (reset: 50+ '1' followed by 0)
Debug: 773 612 cmsis_dap_usb.c:1299 cmsis_dap_reset_link(): DAP Write Abort
Debug: 774 613 cmsis_dap_usb.c:1308 cmsis_dap_reset_link(): Result 0x00
Debug: 775 614 adi_v5_cmsis_dap.c:233 cmsis_dap_run(): CMSIS-ADI: cmsis_dap_run
Debug: 776 614 target.c:2166 target_write_u32(): address: 0xe0002068, value: 0x00000000
Debug: 777 614 adi_v5_cmsis_dap.c:156 cmsis_dap_queue_ap_write(): CMSIS-ADI: cmsis_dap_queue_ap_write 4 0xe0002068
Info : 778 614 cmsis_dap_usb.c:763 cmsis_dap_swd_write_reg(): CMSIS-DAP: Write error (0x04)
Debug: 779 614 cmsis_dap_usb.c:1206 cmsis_dap_reset_link(): CMSIS-DAP: cmsis_dap_reset_link
Info : 780 614 cmsis_dap_usb.c:1207 cmsis_dap_reset_link(): DAP_SWJ Sequence (reset: 50+ '1' followed by 0)
Debug: 781 617 cmsis_dap_usb.c:1299 cmsis_dap_reset_link(): DAP Write Abort
Debug: 782 618 cmsis_dap_usb.c:1308 cmsis_dap_reset_link(): Result 0x00
Debug: 783 618 adi_v5_cmsis_dap.c:156 cmsis_dap_queue_ap_write(): CMSIS-ADI: cmsis_dap_queue_ap_write 12 0x00000000
Info : 784 618 cmsis_dap_usb.c:763 cmsis_dap_swd_write_reg(): CMSIS-DAP: Write error (0x04)
Debug: 785 618 cmsis_dap_usb.c:1206 cmsis_dap_reset_link(): CMSIS-DAP: cmsis_dap_reset_link
Info : 786 618 cmsis_dap_usb.c:1207 cmsis_dap_reset_link(): DAP_SWJ Sequence (reset: 50+ '1' followed by 0)
Debug: 787 622 cmsis_dap_usb.c:1299 cmsis_dap_reset_link(): DAP Write Abort
Debug: 788 623 cmsis_dap_usb.c:1308 cmsis_dap_reset_link(): Result 0x00
Debug: 789 624 adi_v5_cmsis_dap.c:233 cmsis_dap_run(): CMSIS-ADI: cmsis_dap_run
Debug: 790 624 target.c:2166 target_write_u32(): address: 0xe000206c, value: 0x00000000
Debug: 791 624 adi_v5_cmsis_dap.c:156 cmsis_dap_queue_ap_write(): CMSIS-ADI: cmsis_dap_queue_ap_write 4 0xe000206c
Info : 792 624 cmsis_dap_usb.c:763 cmsis_dap_swd_write_reg(): CMSIS-DAP: Write error (0x04)
Debug: 793 624 cmsis_dap_usb.c:1206 cmsis_dap_reset_link(): CMSIS-DAP: cmsis_dap_reset_link
Info : 794 624 cmsis_dap_usb.c:1207 cmsis_dap_reset_link(): DAP_SWJ Sequence (reset: 50+ '1' followed by 0)
Debug: 795 627 cmsis_dap_usb.c:1299 cmsis_dap_reset_link(): DAP Write Abort
Debug: 796 628 cmsis_dap_usb.c:1308 cmsis_dap_reset_link(): Result 0x00
Debug: 797 629 adi_v5_cmsis_dap.c:156 cmsis_dap_queue_ap_write(): CMSIS-ADI: cmsis_dap_queue_ap_write 12 0x00000000
Info : 798 629 cmsis_dap_usb.c:763 cmsis_dap_swd_write_reg(): CMSIS-DAP: Write error (0x04)
Debug: 799 629 cmsis_dap_usb.c:1206 cmsis_dap_reset_link(): CMSIS-DAP: cmsis_dap_reset_link
Info : 800 629 cmsis_dap_usb.c:1207 cmsis_dap_reset_link(): DAP_SWJ Sequence (reset: 50+ '1' followed by 0)
Debug: 801 632 cmsis_dap_usb.c:1299 cmsis_dap_reset_link(): DAP Write Abort
Debug: 802 633 cmsis_dap_usb.c:1308 cmsis_dap_reset_link(): Result 0x00
Debug: 803 634 adi_v5_cmsis_dap.c:233 cmsis_dap_run(): CMSIS-ADI: cmsis_dap_run
Debug: 804 634 target.c:2166 target_write_u32(): address: 0xe0002070, value: 0x00000000
Debug: 805 634 adi_v5_cmsis_dap.c:156 cmsis_dap_queue_ap_write(): CMSIS-ADI: cmsis_dap_queue_ap_write 4 0xe0002070
Info : 806 634 cmsis_dap_usb.c:763 cmsis_dap_swd_write_reg(): CMSIS-DAP: Write error (0x04)
Debug: 807 634 cmsis_dap_usb.c:1206 cmsis_dap_reset_link(): CMSIS-DAP: cmsis_dap_reset_link
Info : 808 634 cmsis_dap_usb.c:1207 cmsis_dap_reset_link(): DAP_SWJ Sequence (reset: 50+ '1' followed by 0)
Debug: 809 638 cmsis_dap_usb.c:1299 cmsis_dap_reset_link(): DAP Write Abort
Debug: 810 638 cmsis_dap_usb.c:1308 cmsis_dap_reset_link(): Result 0x00
Debug: 811 639 adi_v5_cmsis_dap.c:156 cmsis_dap_queue_ap_write(): CMSIS-ADI: cmsis_dap_queue_ap_write 12 0x00000000
Info : 812 639 cmsis_dap_usb.c:763 cmsis_dap_swd_write_reg(): CMSIS-DAP: Write error (0x04)
Debug: 813 639 cmsis_dap_usb.c:1206 cmsis_dap_reset_link(): CMSIS-DAP: cmsis_dap_reset_link
Info : 814 639 cmsis_dap_usb.c:1207 cmsis_dap_reset_link(): DAP_SWJ Sequence (reset: 50+ '1' followed by 0)
Debug: 815 643 cmsis_dap_usb.c:1299 cmsis_dap_reset_link(): DAP Write Abort
Debug: 816 643 cmsis_dap_usb.c:1308 cmsis_dap_reset_link(): Result 0x00
Debug: 817 644 adi_v5_cmsis_dap.c:233 cmsis_dap_run(): CMSIS-ADI: cmsis_dap_run
Debug: 818 644 cortex_m.c:2123 cortex_m_examine(): FPB fpcr 0xbb11477, numcode 23, numlit 4
Debug: 819 644 adi_v5_cmsis_dap.c:156 cmsis_dap_queue_ap_write(): CMSIS-ADI: cmsis_dap_queue_ap_write 4 0xe0001000
Info : 820 644 cmsis_dap_usb.c:763 cmsis_dap_swd_write_reg(): CMSIS-DAP: Write error (0x04)
Debug: 821 644 cmsis_dap_usb.c:1206 cmsis_dap_reset_link(): CMSIS-DAP: cmsis_dap_reset_link
Info : 822 644 cmsis_dap_usb.c:1207 cmsis_dap_reset_link(): DAP_SWJ Sequence (reset: 50+ '1' followed by 0)
Debug: 823 647 cmsis_dap_usb.c:1299 cmsis_dap_reset_link(): DAP Write Abort
Debug: 824 648 cmsis_dap_usb.c:1308 cmsis_dap_reset_link(): Result 0x00
Debug: 825 649 adi_v5_cmsis_dap.c:136 cmsis_dap_queue_ap_read(): CMSIS-ADI: cmsis_dap_queue_ap_read 12
Info : 826 650 cmsis_dap_usb.c:712 cmsis_dap_swd_read_reg(): CMSIS-DAP: Read error (0x04)
Debug: 827 650 cmsis_dap_usb.c:1206 cmsis_dap_reset_link(): CMSIS-DAP: cmsis_dap_reset_link
Info : 828 650 cmsis_dap_usb.c:1207 cmsis_dap_reset_link(): DAP_SWJ Sequence (reset: 50+ '1' followed by 0)
Debug: 829 653 cmsis_dap_usb.c:1299 cmsis_dap_reset_link(): DAP Write Abort
Debug: 830 654 cmsis_dap_usb.c:1308 cmsis_dap_reset_link(): Result 0x00
Debug: 831 655 adi_v5_cmsis_dap.c:233 cmsis_dap_run(): CMSIS-ADI: cmsis_dap_run
Debug: 832 655 target.c:2078 target_read_u32(): address: 0xe0001000, value: 0x0bb11477
Debug: 833 655 cortex_m.c:1978 cortex_m_dwt_setup(): DWT dwtcr 0xbb11477, comp 0, watch only
Info : 834 655 cortex_m.c:2133 cortex_m_examine(): GBQ868.cpu: hardware has 23 breakpoints, 0 watchpoints
Debug: 835 655 target.c:1415 target_call_event_callbacks(): target event 22 (examine-end)
Debug: 836 655 target.c:4436 target_handle_event(): target: (0) GBQ868.cpu (cortex_m) event: 22 (examine-end) action:  
 poll on
 halt
 #poll on

Debug: 837 655 command.c:145 script_debug(): command - ocd_command ocd_command type ocd_poll on
Debug: 838 655 command.c:145 script_debug(): command - poll ocd_poll on
Debug: 841 655 command.c:145 script_debug(): command - ocd_command ocd_command type ocd_halt
Debug: 842 655 command.c:145 script_debug(): command - halt ocd_halt
Debug: 843 655 adi_v5_cmsis_dap.c:156 cmsis_dap_queue_ap_write(): CMSIS-ADI: cmsis_dap_queue_ap_write 0 0xa2000002
Info : 844 655 cmsis_dap_usb.c:763 cmsis_dap_swd_write_reg(): CMSIS-DAP: Write error (0x04)
Debug: 845 655 cmsis_dap_usb.c:1206 cmsis_dap_reset_link(): CMSIS-DAP: cmsis_dap_reset_link
Info : 846 655 cmsis_dap_usb.c:1207 cmsis_dap_reset_link(): DAP_SWJ Sequence (reset: 50+ '1' followed by 0)
Debug: 847 658 cmsis_dap_usb.c:1299 cmsis_dap_reset_link(): DAP Write Abort
Debug: 848 659 cmsis_dap_usb.c:1308 cmsis_dap_reset_link(): Result 0x00
Debug: 849 660 adi_v5_cmsis_dap.c:156 cmsis_dap_queue_ap_write(): CMSIS-ADI: cmsis_dap_queue_ap_write 4 0xe000edf0
Info : 850 661 cmsis_dap_usb.c:763 cmsis_dap_swd_write_reg(): CMSIS-DAP: Write error (0x04)
Debug: 851 661 cmsis_dap_usb.c:1206 cmsis_dap_reset_link(): CMSIS-DAP: cmsis_dap_reset_link
Info : 852 661 cmsis_dap_usb.c:1207 cmsis_dap_reset_link(): DAP_SWJ Sequence (reset: 50+ '1' followed by 0)
Debug: 853 664 cmsis_dap_usb.c:1299 cmsis_dap_reset_link(): DAP Write Abort
Debug: 854 664 cmsis_dap_usb.c:1308 cmsis_dap_reset_link(): Result 0x00
Debug: 855 664 adi_v5_cmsis_dap.c:136 cmsis_dap_queue_ap_read(): CMSIS-ADI: cmsis_dap_queue_ap_read 16
Debug: 856 664 adi_v5_cmsis_dap.c:99 cmsis_dap_queue_dp_write(): CMSIS-ADI: cmsis_dap_queue_dp_write 8 0x00000010
Info : 857 665 cmsis_dap_usb.c:763 cmsis_dap_swd_write_reg(): CMSIS-DAP: Write error (0x04)
Debug: 858 665 cmsis_dap_usb.c:1206 cmsis_dap_reset_link(): CMSIS-DAP: cmsis_dap_reset_link
Info : 859 665 cmsis_dap_usb.c:1207 cmsis_dap_reset_link(): DAP_SWJ Sequence (reset: 50+ '1' followed by 0)
Debug: 860 668 cmsis_dap_usb.c:1299 cmsis_dap_reset_link(): DAP Write Abort
Debug: 861 669 cmsis_dap_usb.c:1308 cmsis_dap_reset_link(): Result 0x00
Debug: 862 671 adi_v5_cmsis_dap.c:233 cmsis_dap_run(): CMSIS-ADI: cmsis_dap_run
Debug: 863 671 adi_v5_cmsis_dap.c:136 cmsis_dap_queue_ap_read(): CMSIS-ADI: cmsis_dap_queue_ap_read 16
Info : 864 672 cmsis_dap_usb.c:712 cmsis_dap_swd_read_reg(): CMSIS-DAP: Read error (0x04)
Debug: 865 672 cmsis_dap_usb.c:1206 cmsis_dap_reset_link(): CMSIS-DAP: cmsis_dap_reset_link
Info : 866 672 cmsis_dap_usb.c:1207 cmsis_dap_reset_link(): DAP_SWJ Sequence (reset: 50+ '1' followed by 0)
Debug: 867 675 cmsis_dap_usb.c:1299 cmsis_dap_reset_link(): DAP Write Abort
Debug: 868 676 cmsis_dap_usb.c:1308 cmsis_dap_reset_link(): Result 0x00
Debug: 869 676 adi_v5_cmsis_dap.c:233 cmsis_dap_run(): CMSIS-ADI: cmsis_dap_run
Debug: 871 676 target.c:2667 handle_halt_command(): -
Debug: 872 676 cortex_m.c:651 cortex_m_halt(): target->state: reset
Debug: 873 676 adi_v5_cmsis_dap.c:136 cmsis_dap_queue_ap_read(): CMSIS-ADI: cmsis_dap_queue_ap_read 16
Info : 874 678 cmsis_dap_usb.c:712 cmsis_dap_swd_read_reg(): CMSIS-DAP: Read error (0x04)
Debug: 875 678 cmsis_dap_usb.c:1206 cmsis_dap_reset_link(): CMSIS-DAP: cmsis_dap_reset_link
Info : 876 678 cmsis_dap_usb.c:1207 cmsis_dap_reset_link(): DAP_SWJ Sequence (reset: 50+ '1' followed by 0)
Debug: 877 681 cmsis_dap_usb.c:1299 cmsis_dap_reset_link(): DAP Write Abort
Debug: 878 681 cmsis_dap_usb.c:1308 cmsis_dap_reset_link(): Result 0x00
Debug: 879 682 adi_v5_cmsis_dap.c:233 cmsis_dap_run(): CMSIS-ADI: cmsis_dap_run
Debug: 880 682 adi_v5_cmsis_dap.c:136 cmsis_dap_queue_ap_read(): CMSIS-ADI: cmsis_dap_queue_ap_read 16
Info : 881 684 cmsis_dap_usb.c:712 cmsis_dap_swd_read_reg(): CMSIS-DAP: Read error (0x04)
Debug: 882 684 cmsis_dap_usb.c:1206 cmsis_dap_reset_link(): CMSIS-DAP: cmsis_dap_reset_link
Info : 883 684 cmsis_dap_usb.c:1207 cmsis_dap_reset_link(): DAP_SWJ Sequence (reset: 50+ '1' followed by 0)
Debug: 884 687 cmsis_dap_usb.c:1299 cmsis_dap_reset_link(): DAP Write Abort
Debug: 885 687 cmsis_dap_usb.c:1308 cmsis_dap_reset_link(): Result 0x00
Debug: 886 688 adi_v5_cmsis_dap.c:233 cmsis_dap_run(): CMSIS-ADI: cmsis_dap_run
Debug: 887 688 target.c:2649 target_wait_state(): waiting for target halted...
Debug: 888 688 adi_v5_cmsis_dap.c:136 cmsis_dap_queue_ap_read(): CMSIS-ADI: cmsis_dap_queue_ap_read 16
Info : 889 689 cmsis_dap_usb.c:712 cmsis_dap_swd_read_reg(): CMSIS-DAP: Read error (0x04)
Debug: 890 689 cmsis_dap_usb.c:1206 cmsis_dap_reset_link(): CMSIS-DAP: cmsis_dap_reset_link
Info : 891 689 cmsis_dap_usb.c:1207 cmsis_dap_reset_link(): DAP_SWJ Sequence (reset: 50+ '1' followed by 0)
Debug: 892 692 cmsis_dap_usb.c:1299 cmsis_dap_reset_link(): DAP Write Abort
Debug: 893 693 cmsis_dap_usb.c:1308 cmsis_dap_reset_link(): Result 0x00
Debug: 894 694 adi_v5_cmsis_dap.c:233 cmsis_dap_run(): CMSIS-ADI: cmsis_dap_run
Debug: 895 694 adi_v5_cmsis_dap.c:136 cmsis_dap_queue_ap_read(): CMSIS-ADI: cmsis_dap_queue_ap_read 16
Info : 896 695 cmsis_dap_usb.c:712 cmsis_dap_swd_read_reg(): CMSIS-DAP: Read error (0x04)
Debug: 897 695 cmsis_dap_usb.c:1206 cmsis_dap_reset_link(): CMSIS-DAP: cmsis_dap_reset_link
Info : 898 695 cmsis_dap_usb.c:1207 cmsis_dap_reset_link(): DAP_SWJ Sequence (reset: 50+ '1' followed by 0)
Debug: 899 698 cmsis_dap_usb.c:1299 cmsis_dap_reset_link(): DAP Write Abort
Debug: 900 699 cmsis_dap_usb.c:1308 cmsis_dap_reset_link(): Result 0x00
Debug: 901 700 adi_v5_cmsis_dap.c:233 cmsis_dap_run(): CMSIS-ADI: cmsis_dap_run
Debug: 902 700 adi_v5_cmsis_dap.c:136 cmsis_dap_queue_ap_read(): CMSIS-ADI: cmsis_dap_queue_ap_read 16
Info : 903 701 cmsis_dap_usb.c:712 cmsis_dap_swd_read_reg(): CMSIS-DAP: Read error (0x04)
Debug: 904 701 cmsis_dap_usb.c:1206 cmsis_dap_reset_link(): CMSIS-DAP: cmsis_dap_reset_link
Info : 905 701 cmsis_dap_usb.c:1207 cmsis_dap_reset_link(): DAP_SWJ Sequence (reset: 50+ '1' followed by 0)
Debug: 906 704 cmsis_dap_usb.c:1299 cmsis_dap_reset_link(): DAP Write Abort
Debug: 907 705 cmsis_dap_usb.c:1308 cmsis_dap_reset_link(): Result 0x00
Debug: 908 706 adi_v5_cmsis_dap.c:233 cmsis_dap_run(): CMSIS-ADI: cmsis_dap_run
Debug: 909 706 adi_v5_cmsis_dap.c:136 cmsis_dap_queue_ap_read(): CMSIS-ADI: cmsis_dap_queue_ap_read 16
Info : 910 707 cmsis_dap_usb.c:712 cmsis_dap_swd_read_reg(): CMSIS-DAP: Read error (0x04)
Debug: 911 707 cmsis_dap_usb.c:1206 cmsis_dap_reset_link(): CMSIS-DAP: cmsis_dap_reset_link
Info : 912 707 cmsis_dap_usb.c:1207 cmsis_dap_reset_link(): DAP_SWJ Sequence (reset: 50+ '1' followed by 0)
Debug: 913 710 cmsis_dap_usb.c:1299 cmsis_dap_reset_link(): DAP Write Abort
Debug: 914 711 cmsis_dap_usb.c:1308 cmsis_dap_reset_link(): Result 0x00
Debug: 915 712 adi_v5_cmsis_dap.c:233 cmsis_dap_run(): CMSIS-ADI: cmsis_dap_run
Debug: 916 712 adi_v5_cmsis_dap.c:136 cmsis_dap_queue_ap_read(): CMSIS-ADI: cmsis_dap_queue_ap_read 16
Info : 917 713 cmsis_dap_usb.c:712 cmsis_dap_swd_read_reg(): CMSIS-DAP: Read error (0x04)
Debug: 918 713 cmsis_dap_usb.c:1206 cmsis_dap_reset_link(): CMSIS-DAP: cmsis_dap_reset_link
Info : 919 713 cmsis_dap_usb.c:1207 cmsis_dap_reset_link(): DAP_SWJ Sequence (reset: 50+ '1' followed by 0)
Debug: 920 716 cmsis_dap_usb.c:1299 cmsis_dap_reset_link(): DAP Write Abort
Debug: 921 717 cmsis_dap_usb.c:1308 cmsis_dap_reset_link(): Result 0x00
Debug: 922 718 adi_v5_cmsis_dap.c:233 cmsis_dap_run(): CMSIS-ADI: cmsis_dap_run
Debug: 923 718 adi_v5_cmsis_dap.c:136 cmsis_dap_queue_ap_read(): CMSIS-ADI: cmsis_dap_queue_ap_read 16
Info : 924 719 cmsis_dap_usb.c:712 cmsis_dap_swd_read_reg(): CMSIS-DAP: Read error (0x04)
Debug: 925 719 cmsis_dap_usb.c:1206 cmsis_dap_reset_link(): CMSIS-DAP: cmsis_dap_reset_link
Info : 926 719 cmsis_dap_usb.c:1207 cmsis_dap_reset_link(): DAP_SWJ Sequence (reset: 50+ '1' followed by 0)
Debug: 927 722 cmsis_dap_usb.c:1299 cmsis_dap_reset_link(): DAP Write Abort
Debug: 928 723 cmsis_dap_usb.c:1308 cmsis_dap_reset_link(): Result 0x00
Debug: 929 723 adi_v5_cmsis_dap.c:233 cmsis_dap_run(): CMSIS-ADI: cmsis_dap_run
Debug: 930 723 adi_v5_cmsis_dap.c:136 cmsis_dap_queue_ap_read(): CMSIS-ADI: cmsis_dap_queue_ap_read 16
Info : 931 725 cmsis_dap_usb.c:712 cmsis_dap_swd_read_reg(): CMSIS-DAP: Read error (0x04)
Debug: 932 725 cmsis_dap_usb.c:1206 cmsis_dap_reset_link(): CMSIS-DAP: cmsis_dap_reset_link
Info : 933 725 cmsis_dap_usb.c:1207 cmsis_dap_reset_link(): DAP_SWJ Sequence (reset: 50+ '1' followed by 0)
Debug: 934 728 cmsis_dap_usb.c:1299 cmsis_dap_reset_link(): DAP Write Abort
Debug: 935 728 cmsis_dap_usb.c:1308 cmsis_dap_reset_link(): Result 0x00
Debug: 936 729 adi_v5_cmsis_dap.c:233 cmsis_dap_run(): CMSIS-ADI: cmsis_dap_run
Debug: 937 729 adi_v5_cmsis_dap.c:136 cmsis_dap_queue_ap_read(): CMSIS-ADI: cmsis_dap_queue_ap_read 16
Info : 938 730 cmsis_dap_usb.c:712 cmsis_dap_swd_read_reg(): CMSIS-DAP: Read error (0x04)
Debug: 939 730 cmsis_dap_usb.c:1206 cmsis_dap_reset_link(): CMSIS-DAP: cmsis_dap_reset_link
Info : 940 730 cmsis_dap_usb.c:1207 cmsis_dap_reset_link(): DAP_SWJ Sequence (reset: 50+ '1' followed by 0)
Debug: 941 734 cmsis_dap_usb.c:1299 cmsis_dap_reset_link(): DAP Write Abort
Debug: 942 734 cmsis_dap_usb.c:1308 cmsis_dap_reset_link(): Result 0x00
Debug: 943 735 adi_v5_cmsis_dap.c:233 cmsis_dap_run(): CMSIS-ADI: cmsis_dap_run
Debug: 944 735 adi_v5_cmsis_dap.c:136 cmsis_dap_queue_ap_read(): CMSIS-ADI: cmsis_dap_queue_ap_read 16
Info : 945 736 cmsis_dap_usb.c:712 cmsis_dap_swd_read_reg(): CMSIS-DAP: Read error (0x04)
Debug: 946 736 cmsis_dap_usb.c:1206 cmsis_dap_reset_link(): CMSIS-DAP: cmsis_dap_reset_link
Info : 947 736 cmsis_dap_usb.c:1207 cmsis_dap_reset_link(): DAP_SWJ Sequence (reset: 50+ '1' followed by 0)
Debug: 948 739 cmsis_dap_usb.c:1299 cmsis_dap_reset_link(): DAP Write Abort
Debug: 949 740 cmsis_dap_usb.c:1308 cmsis_dap_reset_link(): Result 0x00
Debug: 950 741 adi_v5_cmsis_dap.c:233 cmsis_dap_run(): CMSIS-ADI: cmsis_dap_run
Debug: 951 741 adi_v5_cmsis_dap.c:136 cmsis_dap_queue_ap_read(): CMSIS-ADI: cmsis_dap_queue_ap_read 16
Info : 952 742 cmsis_dap_usb.c:712 cmsis_dap_swd_read_reg(): CMSIS-DAP: Read error (0x04)
Debug: 953 742 cmsis_dap_usb.c:1206 cmsis_dap_reset_link(): CMSIS-DAP: cmsis_dap_reset_link
Info : 954 742 cmsis_dap_usb.c:1207 cmsis_dap_reset_link(): DAP_SWJ Sequence (reset: 50+ '1' followed by 0)
Debug: 955 745 cmsis_dap_usb.c:1299 cmsis_dap_reset_link(): DAP Write Abort
Debug: 956 746 cmsis_dap_usb.c:1308 cmsis_dap_reset_link(): Result 0x00
Debug: 957 747 adi_v5_cmsis_dap.c:233 cmsis_dap_run(): CMSIS-ADI: cmsis_dap_run
Debug: 958 747 adi_v5_cmsis_dap.c:136 cmsis_dap_queue_ap_read(): CMSIS-ADI: cmsis_dap_queue_ap_read 16
Info : 959 748 cmsis_dap_usb.c:712 cmsis_dap_swd_read_reg(): CMSIS-DAP: Read error (0x04)
Debug: 960 748 cmsis_dap_usb.c:1206 cmsis_dap_reset_link(): CMSIS-DAP: cmsis_dap_reset_link
Info : 961 748 cmsis_dap_usb.c:1207 cmsis_dap_reset_link(): DAP_SWJ Sequence (reset: 50+ '1' followed by 0)
Debug: 962 751 cmsis_dap_usb.c:1299 cmsis_dap_reset_link(): DAP Write Abort
Debug: 963 751 cmsis_dap_usb.c:1308 cmsis_dap_reset_link(): Result 0x00
Debug: 964 752 adi_v5_cmsis_dap.c:233 cmsis_dap_run(): CMSIS-ADI: cmsis_dap_run
Debug: 965 752 adi_v5_cmsis_dap.c:136 cmsis_dap_queue_ap_read(): CMSIS-ADI: cmsis_dap_queue_ap_read 16
Info : 966 754 cmsis_dap_usb.c:712 cmsis_dap_swd_read_reg(): CMSIS-DAP: Read error (0x04)
Debug: 967 754 cmsis_dap_usb.c:1206 cmsis_dap_reset_link(): CMSIS-DAP: cmsis_dap_reset_link
Info : 968 754 cmsis_dap_usb.c:1207 cmsis_dap_reset_link(): DAP_SWJ Sequence (reset: 50+ '1' followed by 0)
Debug: 969 757 cmsis_dap_usb.c:1299 cmsis_dap_reset_link(): DAP Write Abort
Debug: 970 758 cmsis_dap_usb.c:1308 cmsis_dap_reset_link(): Result 0x00
Debug: 971 758 adi_v5_cmsis_dap.c:233 cmsis_dap_run(): CMSIS-ADI: cmsis_dap_run
Debug: 972 758 adi_v5_cmsis_dap.c:136 cmsis_dap_queue_ap_read(): CMSIS-ADI: cmsis_dap_queue_ap_read 16
Info : 973 760 cmsis_dap_usb.c:712 cmsis_dap_swd_read_reg(): CMSIS-DAP: Read error (0x04)
Debug: 974 760 cmsis_dap_usb.c:1206 cmsis_dap_reset_link(): CMSIS-DAP: cmsis_dap_reset_link
Info : 975 760 cmsis_dap_usb.c:1207 cmsis_dap_reset_link(): DAP_SWJ Sequence (reset: 50+ '1' followed by 0)
Debug: 976 763 cmsis_dap_usb.c:1299 cmsis_dap_reset_link(): DAP Write Abort
Debug: 977 764 cmsis_dap_usb.c:1308 cmsis_dap_reset_link(): Result 0x00
Debug: 978 764 adi_v5_cmsis_dap.c:233 cmsis_dap_run(): CMSIS-ADI: cmsis_dap_run
Debug: 979 764 adi_v5_cmsis_dap.c:136 cmsis_dap_queue_ap_read(): CMSIS-ADI: cmsis_dap_queue_ap_read 16
Info : 980 766 cmsis_dap_usb.c:712 cmsis_dap_swd_read_reg(): CMSIS-DAP: Read error (0x04)
Debug: 981 766 cmsis_dap_usb.c:1206 cmsis_dap_reset_link(): CMSIS-DAP: cmsis_dap_reset_link
Info : 982 766 cmsis_dap_usb.c:1207 cmsis_dap_reset_link(): DAP_SWJ Sequence (reset: 50+ '1' followed by 0)
Debug: 983 769 cmsis_dap_usb.c:1299 cmsis_dap_reset_link(): DAP Write Abort
Debug: 984 769 cmsis_dap_usb.c:1308 cmsis_dap_reset_link(): Result 0x00
Debug: 985 770 adi_v5_cmsis_dap.c:233 cmsis_dap_run(): CMSIS-ADI: cmsis_dap_run
Debug: 986 770 adi_v5_cmsis_dap.c:136 cmsis_dap_queue_ap_read(): CMSIS-ADI: cmsis_dap_queue_ap_read 16
Info : 987 771 cmsis_dap_usb.c:712 cmsis_dap_swd_read_reg(): CMSIS-DAP: Read error (0x04)
Debug: 988 771 cmsis_dap_usb.c:1206 cmsis_dap_reset_link(): CMSIS-DAP: cmsis_dap_reset_link
Info : 989 771 cmsis_dap_usb.c:1207 cmsis_dap_reset_link(): DAP_SWJ Sequence (reset: 50+ '1' followed by 0)
Debug: 990 775 cmsis_dap_usb.c:1299 cmsis_dap_reset_link(): DAP Write Abort
Debug: 991 775 cmsis_dap_usb.c:1308 cmsis_dap_reset_link(): Result 0x00
Debug: 992 776 adi_v5_cmsis_dap.c:233 cmsis_dap_run(): CMSIS-ADI: cmsis_dap_run
Debug: 993 776 adi_v5_cmsis_dap.c:136 cmsis_dap_queue_ap_read(): CMSIS-ADI: cmsis_dap_queue_ap_read 16
Info : 994 777 cmsis_dap_usb.c:712 cmsis_dap_swd_read_reg(): CMSIS-DAP: Read error (0x04)
Debug: 995 777 cmsis_dap_usb.c:1206 cmsis_dap_reset_link(): CMSIS-DAP: cmsis_dap_reset_link
Info : 996 777 cmsis_dap_usb.c:1207 cmsis_dap_reset_link(): DAP_SWJ Sequence (reset: 50+ '1' followed by 0)
Debug: 997 780 cmsis_dap_usb.c:1299 cmsis_dap_reset_link(): DAP Write Abort
Debug: 998 781 cmsis_dap_usb.c:1308 cmsis_dap_reset_link(): Result 0x00
Debug: 999 782 adi_v5_cmsis_dap.c:233 cmsis_dap_run(): CMSIS-ADI: cmsis_dap_run
Debug: 1000 782 adi_v5_cmsis_dap.c:136 cmsis_dap_queue_ap_read(): CMSIS-ADI: cmsis_dap_queue_ap_read 16
Info : 1001 783 cmsis_dap_usb.c:712 cmsis_dap_swd_read_reg(): CMSIS-DAP: Read error (0x04)
Debug: 1002 783 cmsis_dap_usb.c:1206 cmsis_dap_reset_link(): CMSIS-DAP: cmsis_dap_reset_link
Info : 1003 783 cmsis_dap_usb.c:1207 cmsis_dap_reset_link(): DAP_SWJ Sequence (reset: 50+ '1' followed by 0)
Debug: 1004 786 cmsis_dap_usb.c:1299 cmsis_dap_reset_link(): DAP Write Abort
Debug: 1005 787 cmsis_dap_usb.c:1308 cmsis_dap_reset_link(): Result 0x00
Debug: 1006 788 adi_v5_cmsis_dap.c:233 cmsis_dap_run(): CMSIS-ADI: cmsis_dap_run
Debug: 1007 788 adi_v5_cmsis_dap.c:136 cmsis_dap_queue_ap_read(): CMSIS-ADI: cmsis_dap_queue_ap_read 16
Info : 1008 789 cmsis_dap_usb.c:712 cmsis_dap_swd_read_reg(): CMSIS-DAP: Read error (0x04)
Debug: 1009 789 cmsis_dap_usb.c:1206 cmsis_dap_reset_link(): CMSIS-DAP: cmsis_dap_reset_link
Info : 1010 789 cmsis_dap_usb.c:1207 cmsis_dap_reset_link(): DAP_SWJ Sequence (reset: 50+ '1' followed by 0)
Debug: 1011 792 cmsis_dap_usb.c:1299 cmsis_dap_reset_link(): DAP Write Abort
Debug: 1012 793 cmsis_dap_usb.c:1308 cmsis_dap_reset_link(): Result 0x00
Debug: 1013 794 adi_v5_cmsis_dap.c:233 cmsis_dap_run(): CMSIS-ADI: cmsis_dap_run
Debug: 1014 794 adi_v5_cmsis_dap.c:136 cmsis_dap_queue_ap_read(): CMSIS-ADI: cmsis_dap_queue_ap_read 16
Info : 1015 795 cmsis_dap_usb.c:712 cmsis_dap_swd_read_reg(): CMSIS-DAP: Read error (0x04)
Debug: 1016 795 cmsis_dap_usb.c:1206 cmsis_dap_reset_link(): CMSIS-DAP: cmsis_dap_reset_link
Info : 1017 795 cmsis_dap_usb.c:1207 cmsis_dap_reset_link(): DAP_SWJ Sequence (reset: 50+ '1' followed by 0)
Debug: 1018 798 cmsis_dap_usb.c:1299 cmsis_dap_reset_link(): DAP Write Abort
Debug: 1019 799 cmsis_dap_usb.c:1308 cmsis_dap_reset_link(): Result 0x00
Debug: 1020 800 adi_v5_cmsis_dap.c:233 cmsis_dap_run(): CMSIS-ADI: cmsis_dap_run
Debug: 1021 800 adi_v5_cmsis_dap.c:136 cmsis_dap_queue_ap_read(): CMSIS-ADI: cmsis_dap_queue_ap_read 16
Info : 1022 801 cmsis_dap_usb.c:712 cmsis_dap_swd_read_reg(): CMSIS-DAP: Read error (0x04)
Debug: 1023 801 cmsis_dap_usb.c:1206 cmsis_dap_reset_link(): CMSIS-DAP: cmsis_dap_reset_link
Info : 1024 801 cmsis_dap_usb.c:1207 cmsis_dap_reset_link(): DAP_SWJ Sequence (reset: 50+ '1' followed by 0)
Debug: 1025 804 cmsis_dap_usb.c:1299 cmsis_dap_reset_link(): DAP Write Abort
Debug: 1026 805 cmsis_dap_usb.c:1308 cmsis_dap_reset_link(): Result 0x00
Debug: 1027 806 adi_v5_cmsis_dap.c:233 cmsis_dap_run(): CMSIS-ADI: cmsis_dap_run
Debug: 1028 806 adi_v5_cmsis_dap.c:136 cmsis_dap_queue_ap_read(): CMSIS-ADI: cmsis_dap_queue_ap_read 16
Info : 1029 807 cmsis_dap_usb.c:712 cmsis_dap_swd_read_reg(): CMSIS-DAP: Read error (0x04)
Debug: 1030 807 cmsis_dap_usb.c:1206 cmsis_dap_reset_link(): CMSIS-DAP: cmsis_dap_reset_link
Info : 1031 807 cmsis_dap_usb.c:1207 cmsis_dap_reset_link(): DAP_SWJ Sequence (reset: 50+ '1' followed by 0)
Debug: 1032 810 cmsis_dap_usb.c:1299 cmsis_dap_reset_link(): DAP Write Abort
Debug: 1033 811 cmsis_dap_usb.c:1308 cmsis_dap_reset_link(): Result 0x00
Debug: 1034 811 adi_v5_cmsis_dap.c:233 cmsis_dap_run(): CMSIS-ADI: cmsis_dap_run
Debug: 1035 811 adi_v5_cmsis_dap.c:136 cmsis_dap_queue_ap_read(): CMSIS-ADI: cmsis_dap_queue_ap_read 16
Info : 1036 813 cmsis_dap_usb.c:712 cmsis_dap_swd_read_reg(): CMSIS-DAP: Read error (0x04)
Debug: 1037 813 cmsis_dap_usb.c:1206 cmsis_dap_reset_link(): CMSIS-DAP: cmsis_dap_reset_link
Info : 1038 813 cmsis_dap_usb.c:1207 cmsis_dap_reset_link(): DAP_SWJ Sequence (reset: 50+ '1' followed by 0)
Debug: 1039 816 cmsis_dap_usb.c:1299 cmsis_dap_reset_link(): DAP Write Abort
Debug: 1040 816 cmsis_dap_usb.c:1308 cmsis_dap_reset_link(): Result 0x00
Debug: 1041 817 adi_v5_cmsis_dap.c:233 cmsis_dap_run(): CMSIS-ADI: cmsis_dap_run
Debug: 1042 817 adi_v5_cmsis_dap.c:136 cmsis_dap_queue_ap_read(): CMSIS-ADI: cmsis_dap_queue_ap_read 16
Info : 1043 818 cmsis_dap_usb.c:712 cmsis_dap_swd_read_reg(): CMSIS-DAP: Read error (0x04)
Debug: 1044 818 cmsis_dap_usb.c:1206 cmsis_dap_reset_link(): CMSIS-DAP: cmsis_dap_reset_link
Info : 1045 818 cmsis_dap_usb.c:1207 cmsis_dap_reset_link(): DAP_SWJ Sequence (reset: 50+ '1' followed by 0)
Debug: 1046 821 cmsis_dap_usb.c:1299 cmsis_dap_reset_link(): DAP Write Abort
Debug: 1047 822 cmsis_dap_usb.c:1308 cmsis_dap_reset_link(): Result 0x00
Debug: 1048 822 adi_v5_cmsis_dap.c:233 cmsis_dap_run(): CMSIS-ADI: cmsis_dap_run
Debug: 1049 823 adi_v5_cmsis_dap.c:136 cmsis_dap_queue_ap_read(): CMSIS-ADI: cmsis_dap_queue_ap_read 16
Info : 1050 824 cmsis_dap_usb.c:712 cmsis_dap_swd_read_reg(): CMSIS-DAP: Read error (0x04)
Debug: 1051 824 cmsis_dap_usb.c:1206 cmsis_dap_reset_link(): CMSIS-DAP: cmsis_dap_reset_link
Info : 1052 824 cmsis_dap_usb.c:1207 cmsis_dap_reset_link(): DAP_SWJ Sequence (reset: 50+ '1' followed by 0)
Debug: 1053 827 cmsis_dap_usb.c:1299 cmsis_dap_reset_link(): DAP Write Abort
Debug: 1054 828 cmsis_dap_usb.c:1308 cmsis_dap_reset_link(): Result 0x00
Debug: 1055 828 adi_v5_cmsis_dap.c:233 cmsis_dap_run(): CMSIS-ADI: cmsis_dap_run
Debug: 1056 828 adi_v5_cmsis_dap.c:136 cmsis_dap_queue_ap_read(): CMSIS-ADI: cmsis_dap_queue_ap_read 16
Info : 1057 830 cmsis_dap_usb.c:712 cmsis_dap_swd_read_reg(): CMSIS-DAP: Read error (0x04)
Debug: 1058 830 cmsis_dap_usb.c:1206 cmsis_dap_reset_link(): CMSIS-DAP: cmsis_dap_reset_link
Info : 1059 830 cmsis_dap_usb.c:1207 cmsis_dap_reset_link(): DAP_SWJ Sequence (reset: 50+ '1' followed by 0)
Debug: 1060 833 cmsis_dap_usb.c:1299 cmsis_dap_reset_link(): DAP Write Abort
Debug: 1061 833 cmsis_dap_usb.c:1308 cmsis_dap_reset_link(): Result 0x00
Debug: 1062 834 adi_v5_cmsis_dap.c:233 cmsis_dap_run(): CMSIS-ADI: cmsis_dap_run
Debug: 1063 834 adi_v5_cmsis_dap.c:136 cmsis_dap_queue_ap_read(): CMSIS-ADI: cmsis_dap_queue_ap_read 16
Info : 1064 835 cmsis_dap_usb.c:712 cmsis_dap_swd_read_reg(): CMSIS-DAP: Read error (0x04)
Debug: 1065 835 cmsis_dap_usb.c:1206 cmsis_dap_reset_link(): CMSIS-DAP: cmsis_dap_reset_link
Info : 1066 835 cmsis_dap_usb.c:1207 cmsis_dap_reset_link(): DAP_SWJ Sequence (reset: 50+ '1' followed by 0)
Debug: 1067 839 cmsis_dap_usb.c:1299 cmsis_dap_reset_link(): DAP Write Abort
Debug: 1068 839 cmsis_dap_usb.c:1308 cmsis_dap_reset_link(): Result 0x00
Debug: 1069 840 adi_v5_cmsis_dap.c:233 cmsis_dap_run(): CMSIS-ADI: cmsis_dap_run
Debug: 1070 840 adi_v5_cmsis_dap.c:136 cmsis_dap_queue_ap_read(): CMSIS-ADI: cmsis_dap_queue_ap_read 16
Info : 1071 841 cmsis_dap_usb.c:712 cmsis_dap_swd_read_reg(): CMSIS-DAP: Read error (0x04)
Debug: 1072 841 cmsis_dap_usb.c:1206 cmsis_dap_reset_link(): CMSIS-DAP: cmsis_dap_reset_link
Info : 1073 841 cmsis_dap_usb.c:1207 cmsis_dap_reset_link(): DAP_SWJ Sequence (reset: 50+ '1' followed by 0)
Debug: 1074 844 cmsis_dap_usb.c:1299 cmsis_dap_reset_link(): DAP Write Abort
Debug: 1075 845 cmsis_dap_usb.c:1308 cmsis_dap_reset_link(): Result 0x00
Debug: 1076 846 adi_v5_cmsis_dap.c:233 cmsis_dap_run(): CMSIS-ADI: cmsis_dap_run
Debug: 1077 846 adi_v5_cmsis_dap.c:136 cmsis_dap_queue_ap_read(): CMSIS-ADI: cmsis_dap_queue_ap_read 16
Info : 1078 847 cmsis_dap_usb.c:712 cmsis_dap_swd_read_reg(): CMSIS-DAP: Read error (0x04)
Debug: 1079 847 cmsis_dap_usb.c:1206 cmsis_dap_reset_link(): CMSIS-DAP: cmsis_dap_reset_link
Info : 1080 847 cmsis_dap_usb.c:1207 cmsis_dap_reset_link(): DAP_SWJ Sequence (reset: 50+ '1' followed by 0)
Debug: 1081 850 cmsis_dap_usb.c:1299 cmsis_dap_reset_link(): DAP Write Abort
Debug: 1082 851 cmsis_dap_usb.c:1308 cmsis_dap_reset_link(): Result 0x00
Debug: 1083 851 adi_v5_cmsis_dap.c:233 cmsis_dap_run(): CMSIS-ADI: cmsis_dap_run
Debug: 1084 852 adi_v5_cmsis_dap.c:136 cmsis_dap_queue_ap_read(): CMSIS-ADI: cmsis_dap_queue_ap_read 16
Info : 1085 853 cmsis_dap_usb.c:712 cmsis_dap_swd_read_reg(): CMSIS-DAP: Read error (0x04)
Debug: 1086 853 cmsis_dap_usb.c:1206 cmsis_dap_reset_link(): CMSIS-DAP: cmsis_dap_reset_link
Info : 1087 853 cmsis_dap_usb.c:1207 cmsis_dap_reset_link(): DAP_SWJ Sequence (reset: 50+ '1' followed by 0)
Debug: 1088 856 cmsis_dap_usb.c:1299 cmsis_dap_reset_link(): DAP Write Abort
Debug: 1089 857 cmsis_dap_usb.c:1308 cmsis_dap_reset_link(): Result 0x00
Debug: 1090 857 adi_v5_cmsis_dap.c:233 cmsis_dap_run(): CMSIS-ADI: cmsis_dap_run
Debug: 1091 857 adi_v5_cmsis_dap.c:136 cmsis_dap_queue_ap_read(): CMSIS-ADI: cmsis_dap_queue_ap_read 16
Info : 1092 859 cmsis_dap_usb.c:712 cmsis_dap_swd_read_reg(): CMSIS-DAP: Read error (0x04)
Debug: 1093 859 cmsis_dap_usb.c:1206 cmsis_dap_reset_link(): CMSIS-DAP: cmsis_dap_reset_link
Info : 1094 859 cmsis_dap_usb.c:1207 cmsis_dap_reset_link(): DAP_SWJ Sequence (reset: 50+ '1' followed by 0)
Debug: 1095 862 cmsis_dap_usb.c:1299 cmsis_dap_reset_link(): DAP Write Abort
Debug: 1096 862 cmsis_dap_usb.c:1308 cmsis_dap_reset_link(): Result 0x00
Debug: 1097 863 adi_v5_cmsis_dap.c:233 cmsis_dap_run(): CMSIS-ADI: cmsis_dap_run
Debug: 1098 863 adi_v5_cmsis_dap.c:136 cmsis_dap_queue_ap_read(): CMSIS-ADI: cmsis_dap_queue_ap_read 16
Info : 1099 864 cmsis_dap_usb.c:712 cmsis_dap_swd_read_reg(): CMSIS-DAP: Read error (0x04)
Debug: 1100 864 cmsis_dap_usb.c:1206 cmsis_dap_reset_link(): CMSIS-DAP: cmsis_dap_reset_link
Info : 1101 864 cmsis_dap_usb.c:1207 cmsis_dap_reset_link(): DAP_SWJ Sequence (reset: 50+ '1' followed by 0)
Debug: 1102 868 cmsis_dap_usb.c:1299 cmsis_dap_reset_link(): DAP Write Abort
Debug: 1103 868 cmsis_dap_usb.c:1308 cmsis_dap_reset_link(): Result 0x00
Debug: 1104 869 adi_v5_cmsis_dap.c:233 cmsis_dap_run(): CMSIS-ADI: cmsis_dap_run
Debug: 1105 869 adi_v5_cmsis_dap.c:136 cmsis_dap_queue_ap_read(): CMSIS-ADI: cmsis_dap_queue_ap_read 16
Info : 1106 871 cmsis_dap_usb.c:712 cmsis_dap_swd_read_reg(): CMSIS-DAP: Read error (0x04)
Debug: 1107 871 cmsis_dap_usb.c:1206 cmsis_dap_reset_link(): CMSIS-DAP: cmsis_dap_reset_link
Info : 1108 871 cmsis_dap_usb.c:1207 cmsis_dap_reset_link(): DAP_SWJ Sequence (reset: 50+ '1' followed by 0)
Debug: 1109 874 cmsis_dap_usb.c:1299 cmsis_dap_reset_link(): DAP Write Abort
Debug: 1110 874 cmsis_dap_usb.c:1308 cmsis_dap_reset_link(): Result 0x00
Debug: 1111 875 adi_v5_cmsis_dap.c:233 cmsis_dap_run(): CMSIS-ADI: cmsis_dap_run
Debug: 1112 875 adi_v5_cmsis_dap.c:136 cmsis_dap_queue_ap_read(): CMSIS-ADI: cmsis_dap_queue_ap_read 16
Info : 1113 876 cmsis_dap_usb.c:712 cmsis_dap_swd_read_reg(): CMSIS-DAP: Read error (0x04)
Debug: 1114 876 cmsis_dap_usb.c:1206 cmsis_dap_reset_link(): CMSIS-DAP: cmsis_dap_reset_link
Info : 1115 876 cmsis_dap_usb.c:1207 cmsis_dap_reset_link(): DAP_SWJ Sequence (reset: 50+ '1' followed by 0)
Debug: 1116 879 cmsis_dap_usb.c:1299 cmsis_dap_reset_link(): DAP Write Abort
Debug: 1117 880 cmsis_dap_usb.c:1308 cmsis_dap_reset_link(): Result 0x00
Debug: 1118 881 adi_v5_cmsis_dap.c:233 cmsis_dap_run(): CMSIS-ADI: cmsis_dap_run
