Debug: 17 16 options.c:98 add_default_dirs(): bindir=/usr/local/bin
Debug: 18 16 options.c:99 add_default_dirs(): pkgdatadir=/usr/local/share/openocd
Debug: 19 16 options.c:100 add_default_dirs(): run_prefix=D:/Kim Area/Company/GP/Kim_Notebook/GPCM300/Tools/V1.1.3.3_20240222_NoCheckVersion/toolchain/openocd/bin
Debug: 20 16 configuration.c:44 add_script_search_dir(): adding C:\Users\kimhuang\AppData\Roaming/OpenOCD
Debug: 21 16 configuration.c:44 add_script_search_dir(): adding D:/Kim Area/Company/GP/Kim_Notebook/GPCM300/Tools/V1.1.3.3_20240222_NoCheckVersion/toolchain/openocd/bin/usr/local/share/openocd/site
Debug: 22 16 configuration.c:44 add_script_search_dir(): adding D:/Kim Area/Company/GP/Kim_Notebook/GPCM300/Tools/V1.1.3.3_20240222_NoCheckVersion/toolchain/openocd/bin/usr/local/share/openocd/scripts
Debug: 23 16 configuration.c:84 find_file(): found D:/Kim Area/Company/GP/Kim_Notebook/GPCM300/Tools/V1.1.3.3_20240222_NoCheckVersion/toolchain/openocd/share/openocd/scripts/interface/cmsis-dap.cfg
Debug: 24 16 command.c:145 script_debug(): command - ocd_command ocd_command type ocd_interface cmsis-dap
Debug: 25 16 command.c:145 script_debug(): command - interface ocd_interface cmsis-dap
Debug: 27 16 command.c:366 register_command_handler(): registering 'ocd_cmsis-dap'...
Debug: 28 16 command.c:366 register_command_handler(): registering 'ocd_cmsis-dap'...
Debug: 29 16 command.c:366 register_command_handler(): registering 'ocd_cmsis-dap'...
Debug: 30 16 command.c:366 register_command_handler(): registering 'ocd_cmsis-dap'...
Debug: 31 16 command.c:366 register_command_handler(): registering 'ocd_cmsis_dap_vid_pid'...
Debug: 32 16 command.c:366 register_command_handler(): registering 'ocd_cmsis_dap_path'...
Debug: 33 16 command.c:366 register_command_handler(): registering 'ocd_jtag'...
Debug: 34 16 command.c:366 register_command_handler(): registering 'ocd_jtag'...
Debug: 35 16 command.c:366 register_command_handler(): registering 'ocd_jtag'...
Debug: 36 16 command.c:366 register_command_handler(): registering 'ocd_jtag'...
Debug: 37 16 command.c:366 register_command_handler(): registering 'ocd_jtag'...
Debug: 38 16 command.c:366 register_command_handler(): registering 'ocd_jtag'...
Debug: 39 16 command.c:366 register_command_handler(): registering 'ocd_jtag'...
Debug: 40 16 command.c:366 register_command_handler(): registering 'ocd_jtag'...
Debug: 41 16 command.c:366 register_command_handler(): registering 'ocd_jtag'...
Info : 42 16 transport.c:118 allow_transports(): only one transport option; autoselect 'cmsis-dap'
Debug: 43 16 adi_v5_cmsis_dap.c:281 cmsis_dap_select(): CMSIS-ADI: cmsis_dap_select
Debug: 44 16 command.c:401 register_command(): command 'cmsis-dap' is already registered in '<global>' context
Debug: 45 16 command.c:366 register_command_handler(): registering 'ocd_cmsis-dap'...
Debug: 46 16 configuration.c:84 find_file(): found D:/Kim Area/Company/GP/Kim_Notebook/GPCM300/Tools/V1.1.3.3_20240222_NoCheckVersion/toolchain/openocd/share/openocd/scripts/target/GPCM3800A.cfg
Debug: 47 16 configuration.c:84 find_file(): found D:/Kim Area/Company/GP/Kim_Notebook/GPCM300/Tools/V1.1.3.3_20240222_NoCheckVersion/toolchain/openocd/share/openocd/scripts/target/swj-dp.tcl
Debug: 48 16 configuration.c:84 find_file(): found D:/Kim Area/Company/GP/Kim_Notebook/GPCM300/Tools/V1.1.3.3_20240222_NoCheckVersion/toolchain/openocd/share/openocd/scripts/mem_helper.tcl
Debug: 49 16 command.c:145 script_debug(): command - ocd_command ocd_command type ocd_add_usage_text mrw address
Debug: 50 16 command.c:145 script_debug(): command - add_usage_text ocd_add_usage_text mrw address
Debug: 52 16 command.c:1097 help_add_command(): added 'mrw' help text
Debug: 53 16 command.c:145 script_debug(): command - ocd_command ocd_command type ocd_add_help_text mrw Returns value of word in memory.
Debug: 54 16 command.c:145 script_debug(): command - add_help_text ocd_add_help_text mrw Returns value of word in memory.
Debug: 56 16 command.c:1110 help_add_command(): added 'mrw' help text
Debug: 57 16 command.c:145 script_debug(): command - ocd_command ocd_command type ocd_add_usage_text mmw address setbits clearbits
Debug: 58 16 command.c:145 script_debug(): command - add_usage_text ocd_add_usage_text mmw address setbits clearbits
Debug: 60 16 command.c:1097 help_add_command(): added 'mmw' help text
Debug: 61 16 command.c:145 script_debug(): command - ocd_command ocd_command type ocd_add_help_text mmw Modify word in memory. new_val = (old_val & ~clearbits) | setbits;
Debug: 62 16 command.c:145 script_debug(): command - add_help_text ocd_add_help_text mmw Modify word in memory. new_val = (old_val & ~clearbits) | setbits;
Debug: 64 16 command.c:1110 help_add_command(): added 'mmw' help text
Debug: 65 16 command.c:145 script_debug(): command - ocd_command ocd_command type ocd_transport select
Debug: 66 16 command.c:145 script_debug(): command - ocd_transport ocd_transport select
Debug: 67 16 command.c:145 script_debug(): command - ocd_command ocd_command type ocd_cmsis-dap newdap GBQ868 cpu -irlen 4 -ircapture 0x1 -irmask 0xf -expected-id 0x4ba00477
Debug: 68 16 command.c:145 script_debug(): command - ocd_cmsis-dap ocd_cmsis-dap newdap GBQ868 cpu -irlen 4 -ircapture 0x1 -irmask 0xf -expected-id 0x4ba00477
Debug: 69 16 tcl.c:554 jim_newtap_cmd(): Creating New Tap, Chip: GBQ868, Tap: cpu, Dotted: GBQ868.cpu, 8 params
Debug: 70 16 tcl.c:571 jim_newtap_cmd(): Processing option: -irlen
Debug: 71 16 tcl.c:571 jim_newtap_cmd(): Processing option: -ircapture
Debug: 72 16 tcl.c:571 jim_newtap_cmd(): Processing option: -irmask
Debug: 73 16 tcl.c:571 jim_newtap_cmd(): Processing option: -expected-id
Debug: 74 16 core.c:1319 jtag_tap_init(): Created Tap: GBQ868.cpu @ abs position 0, irlen 4, capture: 0x1 mask: 0xf
Debug: 75 16 command.c:145 script_debug(): command - ocd_command ocd_command type ocd_target create GBQ868.cpu cortex_m -endian little -chain-position GBQ868.cpu
Debug: 76 16 command.c:145 script_debug(): command - ocd_target ocd_target create GBQ868.cpu cortex_m -endian little -chain-position GBQ868.cpu
Debug: 77 16 target.c:1736 target_free_all_working_areas_restore(): freeing all working areas
Debug: 78 16 command.c:366 register_command_handler(): registering 'ocd_arm'...
Debug: 79 16 command.c:366 register_command_handler(): registering 'ocd_arm'...
Debug: 80 16 command.c:366 register_command_handler(): registering 'ocd_arm'...
Debug: 81 16 command.c:366 register_command_handler(): registering 'ocd_arm'...
Debug: 82 16 command.c:366 register_command_handler(): registering 'ocd_arm'...
Debug: 83 16 command.c:366 register_command_handler(): registering 'ocd_arm'...
Debug: 84 16 command.c:366 register_command_handler(): registering 'ocd_dap'...
Debug: 85 16 command.c:366 register_command_handler(): registering 'ocd_dap'...
Debug: 86 16 command.c:366 register_command_handler(): registering 'ocd_dap'...
Debug: 87 16 command.c:366 register_command_handler(): registering 'ocd_dap'...
Debug: 88 16 command.c:366 register_command_handler(): registering 'ocd_dap'...
Debug: 89 16 command.c:366 register_command_handler(): registering 'ocd_dap'...
Debug: 90 16 command.c:366 register_command_handler(): registering 'ocd_dap'...
Debug: 91 16 command.c:366 register_command_handler(): registering 'ocd_dap'...
Debug: 92 16 command.c:366 register_command_handler(): registering 'ocd_dap'...
Debug: 93 16 command.c:366 register_command_handler(): registering 'ocd_cortex_m'...
Debug: 94 16 command.c:366 register_command_handler(): registering 'ocd_cortex_m'...
Debug: 95 16 command.c:366 register_command_handler(): registering 'ocd_cortex_m'...
Debug: 96 16 command.c:366 register_command_handler(): registering 'ocd_GBQ868.cpu'...
Debug: 97 16 command.c:366 register_command_handler(): registering 'ocd_GBQ868.cpu'...
Debug: 98 16 command.c:366 register_command_handler(): registering 'ocd_GBQ868.cpu'...
Debug: 99 16 command.c:366 register_command_handler(): registering 'ocd_GBQ868.cpu'...
Debug: 100 16 command.c:366 register_command_handler(): registering 'ocd_GBQ868.cpu'...
Debug: 101 16 command.c:366 register_command_handler(): registering 'ocd_GBQ868.cpu'...
Debug: 102 16 command.c:366 register_command_handler(): registering 'ocd_GBQ868.cpu'...
Debug: 103 16 command.c:366 register_command_handler(): registering 'ocd_GBQ868.cpu'...
Debug: 104 16 command.c:366 register_command_handler(): registering 'ocd_GBQ868.cpu'...
Debug: 105 16 command.c:366 register_command_handler(): registering 'ocd_GBQ868.cpu'...
Debug: 106 16 command.c:366 register_command_handler(): registering 'ocd_GBQ868.cpu'...
Debug: 107 16 command.c:366 register_command_handler(): registering 'ocd_GBQ868.cpu'...
Debug: 108 16 command.c:366 register_command_handler(): registering 'ocd_GBQ868.cpu'...
Debug: 109 16 command.c:366 register_command_handler(): registering 'ocd_GBQ868.cpu'...
Debug: 110 16 command.c:366 register_command_handler(): registering 'ocd_GBQ868.cpu'...
Debug: 111 16 command.c:366 register_command_handler(): registering 'ocd_GBQ868.cpu'...
Debug: 112 16 command.c:366 register_command_handler(): registering 'ocd_GBQ868.cpu'...
Debug: 113 16 command.c:366 register_command_handler(): registering 'ocd_GBQ868.cpu'...
Debug: 114 16 command.c:366 register_command_handler(): registering 'ocd_GBQ868.cpu'...
Debug: 115 16 command.c:366 register_command_handler(): registering 'ocd_GBQ868.cpu'...
Debug: 116 16 command.c:366 register_command_handler(): registering 'ocd_GBQ868.cpu'...
Debug: 117 16 command.c:366 register_command_handler(): registering 'ocd_GBQ868.cpu'...
Debug: 118 16 command.c:366 register_command_handler(): registering 'ocd_GBQ868.cpu'...
Debug: 119 16 command.c:366 register_command_handler(): registering 'ocd_GBQ868.cpu'...
Debug: 120 16 command.c:366 register_command_handler(): registering 'ocd_GBQ868.cpu'...
Debug: 121 16 command.c:366 register_command_handler(): registering 'ocd_GBQ868.cpu'...
Debug: 122 16 command.c:366 register_command_handler(): registering 'ocd_GBQ868.cpu'...
Debug: 123 16 command.c:366 register_command_handler(): registering 'ocd_GBQ868.cpu'...
Debug: 124 16 command.c:366 register_command_handler(): registering 'ocd_GBQ868.cpu'...
Debug: 125 16 command.c:366 register_command_handler(): registering 'ocd_GBQ868.cpu'...
Debug: 126 16 command.c:366 register_command_handler(): registering 'ocd_GBQ868.cpu'...
Debug: 127 16 command.c:366 register_command_handler(): registering 'ocd_GBQ868.cpu'...
Debug: 128 16 command.c:366 register_command_handler(): registering 'ocd_GBQ868.cpu'...
Debug: 129 16 command.c:366 register_command_handler(): registering 'ocd_GBQ868.cpu'...
Debug: 130 16 command.c:366 register_command_handler(): registering 'ocd_GBQ868.cpu'...
Debug: 131 16 command.c:366 register_command_handler(): registering 'ocd_GBQ868.cpu'...
Debug: 132 16 command.c:366 register_command_handler(): registering 'ocd_GBQ868.cpu'...
Debug: 133 16 command.c:366 register_command_handler(): registering 'ocd_GBQ868.cpu'...
Debug: 134 16 command.c:366 register_command_handler(): registering 'ocd_GBQ868.cpu'...
Debug: 135 16 command.c:366 register_command_handler(): registering 'ocd_GBQ868.cpu'...
Debug: 136 16 command.c:145 script_debug(): command - ocd_command ocd_command type ocd_GBQ868.cpu configure -work-area-phys 0x20000100 -work-area-size 0x1000 -work-area-backup 0
Debug: 137 16 command.c:145 script_debug(): command - ocd_GBQ868.cpu ocd_GBQ868.cpu configure -work-area-phys 0x20000100 -work-area-size 0x1000 -work-area-backup 0
Debug: 138 16 target.c:1736 target_free_all_working_areas_restore(): freeing all working areas
Debug: 139 16 target.c:1736 target_free_all_working_areas_restore(): freeing all working areas
Debug: 140 16 target.c:1736 target_free_all_working_areas_restore(): freeing all working areas
Debug: 141 16 command.c:145 script_debug(): command - ocd_command ocd_command type ocd_flash bank GBQ868.flash0 gpcm1f 0x00000000 0x10000 0 0 GBQ868.cpu
Debug: 142 16 command.c:145 script_debug(): command - ocd_flash ocd_flash bank GBQ868.flash0 gpcm1f 0x00000000 0x10000 0 0 GBQ868.cpu
Debug: 144 16 command.c:366 register_command_handler(): registering 'ocd_gpcm1f'...
Debug: 145 16 tcl.c:939 handle_flash_bank_command(): 'gpcm1f' driver usage field missing
Debug: 146 16 command.c:145 script_debug(): command - ocd_command ocd_command type ocd_flash bank GBQ868.flash1 gpcm3800_spifc 0x04000000 0 0 0 GBQ868.cpu 32 4
Debug: 147 16 command.c:145 script_debug(): command - ocd_flash ocd_flash bank GBQ868.flash1 gpcm3800_spifc 0x04000000 0 0 0 GBQ868.cpu 32 4
Info : 149 16 gpcm3800_spifc.c:113 gpcm3800_spifc_flash_bank_command(): spi_clk_div 0x00000020
Info : 150 16 gpcm3800_spifc.c:115 gpcm3800_spifc_flash_bank_command(): spifc_clk_div 0x00000004
Debug: 151 16 tcl.c:939 handle_flash_bank_command(): 'gpcm3800_spifc' driver usage field missing
Debug: 152 16 command.c:145 script_debug(): command - ocd_command ocd_command type ocd_adapter_khz 6000
Debug: 153 16 command.c:145 script_debug(): command - adapter_khz ocd_adapter_khz 6000
Debug: 155 16 core.c:1645 jtag_config_khz(): handle jtag khz
Debug: 156 16 core.c:1612 adapter_khz_to_speed(): convert khz to interface specific speed value
Debug: 157 16 core.c:1612 adapter_khz_to_speed(): convert khz to interface specific speed value
User : 158 16 command.c:546 command_print(): adapter speed: 6000 kHz
Debug: 159 16 command.c:145 script_debug(): command - ocd_command ocd_command type ocd_reset_config connect_assert_srst
Debug: 160 16 command.c:145 script_debug(): command - reset_config ocd_reset_config connect_assert_srst
User : 162 16 command.c:546 command_print(): none separate
Debug: 163 16 command.c:145 script_debug(): command - ocd_command ocd_command type ocd_adapter_nsrst_delay 100
Debug: 164 16 command.c:145 script_debug(): command - adapter_nsrst_delay ocd_adapter_nsrst_delay 100
User : 166 16 command.c:546 command_print(): adapter_nsrst_delay: 100
Debug: 167 16 command.c:145 script_debug(): command - ocd_command ocd_command type ocd_GBQ868.cpu configure -event examine-start  
 poll off

Debug: 168 16 command.c:145 script_debug(): command - ocd_GBQ868.cpu ocd_GBQ868.cpu configure -event examine-start  
 poll off

Debug: 169 16 command.c:145 script_debug(): command - ocd_command ocd_command type ocd_GBQ868.cpu configure -event examine-end  
 poll on
 halt
 #poll on

Debug: 170 16 command.c:145 script_debug(): command - ocd_GBQ868.cpu ocd_GBQ868.cpu configure -event examine-end  
 poll on
 halt
 #poll on

Debug: 171 16 command.c:145 script_debug(): command - ocd_command ocd_command type ocd_GBQ868.cpu configure -event gdb-attach  
 cortex_m reset_config sysresetreq
 #halt

Debug: 172 16 command.c:145 script_debug(): command - ocd_GBQ868.cpu ocd_GBQ868.cpu configure -event gdb-attach  
 cortex_m reset_config sysresetreq
 #halt

Debug: 173 16 command.c:145 script_debug(): command - ocd_command ocd_command type ocd_GBQ868.cpu configure -event gdb-detach  
 shutdown

Debug: 174 16 command.c:145 script_debug(): command - ocd_GBQ868.cpu ocd_GBQ868.cpu configure -event gdb-detach  
 shutdown

Debug: 175 16 command.c:145 script_debug(): command - ocd_command ocd_command type ocd_GBQ868.cpu configure -event gdb-flash-erase-start  


Debug: 176 16 command.c:145 script_debug(): command - ocd_GBQ868.cpu ocd_GBQ868.cpu configure -event gdb-flash-erase-start  


Debug: 177 16 command.c:145 script_debug(): command - ocd_command ocd_command type ocd_GBQ868.cpu configure -event gdb-flash-write-end  
	global _DAP_FLAG
	if { $_DAP_FLAG == 0 } {
		#disable cache
		mww 0x50000030 0x0
		set _DAP_FLAG 1
	}

Debug: 178 16 command.c:145 script_debug(): command - ocd_GBQ868.cpu ocd_GBQ868.cpu configure -event gdb-flash-write-end  
	global _DAP_FLAG
	if { $_DAP_FLAG == 0 } {
		#disable cache
		mww 0x50000030 0x0
		set _DAP_FLAG 1
	}

Debug: 179 16 command.c:145 script_debug(): command - ocd_command ocd_command type ocd_GBQ868.cpu configure -event reset-end  
	
	#Disable halt mode
	mww 0x50005040 0x87
	mww 0x50005040 0x9A
	mmw 0x50005050 0x0 0x8
	mww 0x50005040 0x00
	
	#Disable WDG
	#mww 0x400D0000 0x55
	#mww 0x400D0000 0x00

Debug: 180 16 command.c:145 script_debug(): command - ocd_GBQ868.cpu ocd_GBQ868.cpu configure -event reset-end  
	
	#Disable halt mode
	mww 0x50005040 0x87
	mww 0x50005040 0x9A
	mmw 0x50005050 0x0 0x8
	mww 0x50005040 0x00
	
	#Disable WDG
	#mww 0x400D0000 0x55
	#mww 0x400D0000 0x00

Debug: 181 16 command.c:145 script_debug(): command - ocd_command ocd_command type ocd_adapter_khz 1000
Debug: 182 16 command.c:145 script_debug(): command - adapter_khz ocd_adapter_khz 1000
Debug: 184 16 core.c:1645 jtag_config_khz(): handle jtag khz
Debug: 185 16 core.c:1612 adapter_khz_to_speed(): convert khz to interface specific speed value
Debug: 186 16 core.c:1612 adapter_khz_to_speed(): convert khz to interface specific speed value
User : 187 16 command.c:546 command_print(): adapter speed: 1000 kHz
User : 188 16 command.c:691 command_run_line(): 1000User : 189 16 command.c:693 command_run_line(): 
Debug: 190 16 command.c:145 script_debug(): command - ocd_command ocd_command type ocd_gdb_port 3333
Debug: 191 16 command.c:145 script_debug(): command - gdb_port ocd_gdb_port 3333
Debug: 193 16 command.c:145 script_debug(): command - ocd_command ocd_command type ocd_telnet_port 4444
Debug: 194 16 command.c:145 script_debug(): command - telnet_port ocd_telnet_port 4444
Debug: 196 16 command.c:145 script_debug(): command - ocd_command ocd_command type ocd_cmsis_dap_path 6&35b1ffc9&1&000
Debug: 197 16 command.c:145 script_debug(): command - cmsis_dap_path ocd_cmsis_dap_path 6&35b1ffc9&1&000
Debug: 199 16 command.c:145 script_debug(): command - ocd_command ocd_command type ocd_init
Debug: 200 16 command.c:145 script_debug(): command - init ocd_init
Debug: 202 16 command.c:145 script_debug(): command - ocd_command ocd_command type ocd_target init
Debug: 203 16 command.c:145 script_debug(): command - ocd_target ocd_target init
Debug: 205 16 command.c:145 script_debug(): command - ocd_command ocd_command type ocd_target names
Debug: 206 16 command.c:145 script_debug(): command - ocd_target ocd_target names
Debug: 207 16 command.c:145 script_debug(): command - ocd_command ocd_command type ocd_GBQ868.cpu cget -event gdb-flash-erase-start
Debug: 208 16 command.c:145 script_debug(): command - ocd_GBQ868.cpu ocd_GBQ868.cpu cget -event gdb-flash-erase-start
Debug: 209 16 command.c:145 script_debug(): command - ocd_command ocd_command type ocd_GBQ868.cpu cget -event gdb-flash-write-end
Debug: 210 16 command.c:145 script_debug(): command - ocd_GBQ868.cpu ocd_GBQ868.cpu cget -event gdb-flash-write-end
Debug: 211 16 target.c:1299 handle_target_init_command(): Initializing targets...
Debug: 212 16 command.c:366 register_command_handler(): registering 'ocd_target_request'...
Debug: 213 16 command.c:366 register_command_handler(): registering 'ocd_trace'...
Debug: 214 16 command.c:366 register_command_handler(): registering 'ocd_trace'...
Debug: 215 16 command.c:366 register_command_handler(): registering 'ocd_fast_load_image'...
Debug: 216 16 command.c:366 register_command_handler(): registering 'ocd_fast_load'...
Debug: 217 16 command.c:366 register_command_handler(): registering 'ocd_profile'...
Debug: 218 16 command.c:366 register_command_handler(): registering 'ocd_virt2phys'...
Debug: 219 16 command.c:366 register_command_handler(): registering 'ocd_reg'...
Debug: 220 16 command.c:366 register_command_handler(): registering 'ocd_poll'...
Debug: 221 16 command.c:366 register_command_handler(): registering 'ocd_poll_once'...
Debug: 222 16 command.c:366 register_command_handler(): registering 'ocd_wait_halt'...
Debug: 223 16 command.c:366 register_command_handler(): registering 'ocd_halt'...
Debug: 224 16 command.c:366 register_command_handler(): registering 'ocd_resume'...
Debug: 225 16 command.c:366 register_command_handler(): registering 'ocd_reset'...
Debug: 226 16 command.c:366 register_command_handler(): registering 'ocd_soft_reset_halt'...
Debug: 227 16 command.c:366 register_command_handler(): registering 'ocd_step'...
Debug: 228 16 command.c:366 register_command_handler(): registering 'ocd_mdw'...
Debug: 229 16 command.c:366 register_command_handler(): registering 'ocd_mdh'...
Debug: 230 16 command.c:366 register_command_handler(): registering 'ocd_mdb'...
Debug: 231 16 command.c:366 register_command_handler(): registering 'ocd_mww'...
Debug: 232 16 command.c:366 register_command_handler(): registering 'ocd_mwh'...
Debug: 233 16 command.c:366 register_command_handler(): registering 'ocd_mwb'...
Debug: 234 16 command.c:366 register_command_handler(): registering 'ocd_bp'...
Debug: 235 16 command.c:366 register_command_handler(): registering 'ocd_rbp'...
Debug: 236 16 command.c:366 register_command_handler(): registering 'ocd_wp'...
Debug: 237 16 command.c:366 register_command_handler(): registering 'ocd_rwp'...
Debug: 238 16 command.c:366 register_command_handler(): registering 'ocd_load_image'...
Debug: 239 16 command.c:366 register_command_handler(): registering 'ocd_test_load_image'...
Debug: 240 16 command.c:366 register_command_handler(): registering 'ocd_dump_image'...
Debug: 241 16 command.c:366 register_command_handler(): registering 'ocd_verify_image_checksum'...
Debug: 242 16 command.c:366 register_command_handler(): registering 'ocd_verify_image'...
Debug: 243 16 command.c:366 register_command_handler(): registering 'ocd_test_image'...
Debug: 244 16 command.c:366 register_command_handler(): registering 'ocd_reset_nag'...
Debug: 245 16 command.c:366 register_command_handler(): registering 'ocd_ps'...
Debug: 246 16 command.c:366 register_command_handler(): registering 'ocd_test_mem_access'...
Info : 247 47 cmsis_dap_usb.c:341 cmsis_dap_usb_open(): Open probe: 0x1b3f:0x6707
Info : 248 47 cmsis_dap_usb.c:1175 cmsis_dap_get_caps_info(): CMSIS-DAP: SWD  Supported
Info : 249 47 cmsis_dap_usb.c:1177 cmsis_dap_get_caps_info(): CMSIS-DAP: JTAG Supported
Info : 250 47 cmsis_dap_usb.c:1490 cmsis_dap_swd_init(): CMSIS-DAP: Interface Initialised (SWD)
Info : 251 47 cmsis_dap_usb.c:1155 cmsis_dap_get_version_info(): CMSIS-DAP: FW Version = 3.0.3.2
Debug: 252 47 cmsis_dap_usb.c:1387 cmsis_dap_init(): CMSIS-DAP: Packet Size = 1024
Debug: 253 47 cmsis_dap_usb.c:1398 cmsis_dap_init(): CMSIS-DAP: Packet Count = 4
Debug: 254 47 cmsis_dap_usb.c:450 cmsis_dap_cmd_DAP_SWJ_Pins(): cmsis_dap_cmd_DAP_SWJ_Pins: pins 0x0, mask 0x0
Info : 255 47 cmsis_dap_usb.c:1196 cmsis_dap_get_status(): SWCLK/TCK = 0 SWDIO/TMS = 0 TDI = 0 TDO = 0 nTRST = 0 nRESET = 1
Debug: 256 78 cmsis_dap_usb.c:450 cmsis_dap_cmd_DAP_SWJ_Pins(): cmsis_dap_cmd_DAP_SWJ_Pins: pins 0x0, mask 0x80
Info : 257 100 cmsis_dap_usb.c:1439 cmsis_dap_init(): Connecting under reset
Debug: 258 100 cmsis_dap_usb.c:1206 cmsis_dap_reset_link(): CMSIS-DAP: cmsis_dap_reset_link
Info : 259 100 cmsis_dap_usb.c:1207 cmsis_dap_reset_link(): DAP_SWJ Sequence (reset: 50+ '1' followed by 0)
Debug: 260 100 cmsis_dap_usb.c:1299 cmsis_dap_reset_link(): DAP Write Abort
Debug: 261 100 cmsis_dap_usb.c:1308 cmsis_dap_reset_link(): Result 0x00
Info : 262 116 cmsis_dap_usb.c:1456 cmsis_dap_init(): CMSIS-DAP: Interface ready
Debug: 263 116 core.c:1612 adapter_khz_to_speed(): convert khz to interface specific speed value
Debug: 264 116 core.c:1615 adapter_khz_to_speed(): have interface set up
Debug: 265 116 core.c:1612 adapter_khz_to_speed(): convert khz to interface specific speed value
Debug: 266 116 core.c:1615 adapter_khz_to_speed(): have interface set up
Info : 267 116 core.c:1401 adapter_init(): clock speed 1000 kHz
Debug: 268 116 openocd.c:138 handle_init_command(): Debug Adapter init complete
Debug: 269 116 command.c:145 script_debug(): command - ocd_command ocd_command type ocd_transport init
Debug: 270 116 command.c:145 script_debug(): command - ocd_transport ocd_transport init
Debug: 272 116 transport.c:240 handle_transport_init(): handle_transport_init
Debug: 273 116 adi_v5_cmsis_dap.c:316 cmsis_dap_init(): CMSIS-ADI: cmsis_dap_init
Debug: 274 116 adi_v5_cmsis_dap.c:86 cmsis_dap_queue_idcode_read(): CMSIS-ADI: cmsis_dap_queue_idcode_read
Debug: 275 116 adi_v5_cmsis_dap.c:70 cmsis_dap_queue_dp_read(): CMSIS-ADI: cmsis_dap_queue_dp_read 0
Info : 276 116 adi_v5_cmsis_dap.c:350 cmsis_dap_init(): IDCODE 0x0bb11477
Debug: 277 116 adi_v5_cmsis_dap.c:60 cmsis_dap_queue_ap_abort(): CMSIS-ADI: cmsis_dap_queue_ap_abort
Debug: 278 116 cmsis_dap_usb.c:450 cmsis_dap_cmd_DAP_SWJ_Pins(): cmsis_dap_cmd_DAP_SWJ_Pins: pins 0x80, mask 0x80
Debug: 279 131 core.c:717 jtag_add_reset(): SRST line released
Debug: 280 131 core.c:741 jtag_add_reset(): TRST line released
Debug: 281 131 core.c:321 jtag_call_event_callbacks(): jtag event: TAP reset
Debug: 282 131 openocd.c:151 handle_init_command(): Examining targets...
Debug: 283 131 target.c:1415 target_call_event_callbacks(): target event 21 (examine-start)
Debug: 284 131 target.c:4436 target_handle_event(): target: (0) GBQ868.cpu (cortex_m) event: 21 (examine-start) action:  
 poll off

Debug: 285 131 command.c:145 script_debug(): command - ocd_command ocd_command type ocd_poll off
Debug: 286 131 command.c:145 script_debug(): command - poll ocd_poll off
Debug: 288 131 arm_adi_v5.c:876 ahbap_debugport_init():  
Debug: 289 131 adi_v5_cmsis_dap.c:70 cmsis_dap_queue_dp_read(): CMSIS-ADI: cmsis_dap_queue_dp_read 4
Debug: 290 131 adi_v5_cmsis_dap.c:99 cmsis_dap_queue_dp_write(): CMSIS-ADI: cmsis_dap_queue_dp_write 4 0x50000000
Debug: 291 131 adi_v5_cmsis_dap.c:104 cmsis_dap_queue_dp_write(): disabling overrun detection
Debug: 292 131 adi_v5_cmsis_dap.c:70 cmsis_dap_queue_dp_read(): CMSIS-ADI: cmsis_dap_queue_dp_read 4
Debug: 293 131 adi_v5_cmsis_dap.c:233 cmsis_dap_run(): CMSIS-ADI: cmsis_dap_run
Debug: 294 131 adi_v5_cmsis_dap.c:70 cmsis_dap_queue_dp_read(): CMSIS-ADI: cmsis_dap_queue_dp_read 4
Debug: 295 131 adi_v5_cmsis_dap.c:99 cmsis_dap_queue_dp_write(): CMSIS-ADI: cmsis_dap_queue_dp_write 4 0x50000001
Debug: 296 131 adi_v5_cmsis_dap.c:104 cmsis_dap_queue_dp_write(): disabling overrun detection
Debug: 297 131 adi_v5_cmsis_dap.c:70 cmsis_dap_queue_dp_read(): CMSIS-ADI: cmsis_dap_queue_dp_read 4
Debug: 298 131 adi_v5_cmsis_dap.c:156 cmsis_dap_queue_ap_write(): CMSIS-ADI: cmsis_dap_queue_ap_write 0 0xa2000020
Debug: 299 131 adi_v5_cmsis_dap.c:99 cmsis_dap_queue_dp_write(): CMSIS-ADI: cmsis_dap_queue_dp_write 8 0x00000000
Debug: 300 131 adi_v5_cmsis_dap.c:156 cmsis_dap_queue_ap_write(): CMSIS-ADI: cmsis_dap_queue_ap_write 4 0x00000000
Debug: 301 131 adi_v5_cmsis_dap.c:136 cmsis_dap_queue_ap_read(): CMSIS-ADI: cmsis_dap_queue_ap_read 0
Debug: 302 131 adi_v5_cmsis_dap.c:136 cmsis_dap_queue_ap_read(): CMSIS-ADI: cmsis_dap_queue_ap_read 244
Debug: 303 131 adi_v5_cmsis_dap.c:99 cmsis_dap_queue_dp_write(): CMSIS-ADI: cmsis_dap_queue_dp_write 8 0x000000f0
Debug: 304 131 adi_v5_cmsis_dap.c:233 cmsis_dap_run(): CMSIS-ADI: cmsis_dap_run
Debug: 305 131 arm_adi_v5.c:990 ahbap_debugport_init(): MEM_AP Packed Transfers: disabled
Debug: 306 131 arm_adi_v5.c:1001 ahbap_debugport_init(): MEM_AP CFG: large data 0, long address 0, big-endian 0
Debug: 307 131 cortex_m.c:653 cortex_m_halt(): target->state: unknown
Warn : 308 131 cortex_m.c:661 cortex_m_halt(): target was in unknown state when halt was requested
Debug: 309 131 adi_v5_cmsis_dap.c:156 cmsis_dap_queue_ap_write(): CMSIS-ADI: cmsis_dap_queue_ap_write 0 0xa2000002
Debug: 310 131 adi_v5_cmsis_dap.c:99 cmsis_dap_queue_dp_write(): CMSIS-ADI: cmsis_dap_queue_dp_write 8 0x00000000
Debug: 311 131 adi_v5_cmsis_dap.c:156 cmsis_dap_queue_ap_write(): CMSIS-ADI: cmsis_dap_queue_ap_write 4 0xe000edf0
Debug: 312 131 adi_v5_cmsis_dap.c:156 cmsis_dap_queue_ap_write(): CMSIS-ADI: cmsis_dap_queue_ap_write 16 0xa05f0003
Debug: 313 131 adi_v5_cmsis_dap.c:99 cmsis_dap_queue_dp_write(): CMSIS-ADI: cmsis_dap_queue_dp_write 8 0x00000010
Debug: 314 131 adi_v5_cmsis_dap.c:233 cmsis_dap_run(): CMSIS-ADI: cmsis_dap_run
Debug: 315 131 adi_v5_cmsis_dap.c:156 cmsis_dap_queue_ap_write(): CMSIS-ADI: cmsis_dap_queue_ap_write 4 0xe000ed00
Debug: 316 131 adi_v5_cmsis_dap.c:99 cmsis_dap_queue_dp_write(): CMSIS-ADI: cmsis_dap_queue_dp_write 8 0x00000000
Debug: 317 131 adi_v5_cmsis_dap.c:156 cmsis_dap_queue_ap_write(): CMSIS-ADI: cmsis_dap_queue_ap_write 0 0xa2000012
Debug: 318 147 adi_v5_cmsis_dap.c:136 cmsis_dap_queue_ap_read(): CMSIS-ADI: cmsis_dap_queue_ap_read 12
Debug: 319 147 adi_v5_cmsis_dap.c:233 cmsis_dap_run(): CMSIS-ADI: cmsis_dap_run
Debug: 320 147 target.c:2078 target_read_u32(): address: 0xe000ed00, value: 0x410cc200
Debug: 321 147 cortex_m.c:2035 cortex_m_examine(): Cortex-M0 r0p0 processor detected
Debug: 322 147 cortex_m.c:2043 cortex_m_examine(): cpuid: 0x410cc200
Debug: 323 147 adi_v5_cmsis_dap.c:156 cmsis_dap_queue_ap_write(): CMSIS-ADI: cmsis_dap_queue_ap_write 4 0xe0002000
Debug: 324 147 adi_v5_cmsis_dap.c:136 cmsis_dap_queue_ap_read(): CMSIS-ADI: cmsis_dap_queue_ap_read 12
Debug: 325 147 adi_v5_cmsis_dap.c:233 cmsis_dap_run(): CMSIS-ADI: cmsis_dap_run
Debug: 326 147 target.c:2078 target_read_u32(): address: 0xe0002000, value: 0x00000040
Debug: 327 147 target.c:2166 target_write_u32(): address: 0xe0002008, value: 0x00000000
Debug: 328 147 adi_v5_cmsis_dap.c:156 cmsis_dap_queue_ap_write(): CMSIS-ADI: cmsis_dap_queue_ap_write 4 0xe0002008
Debug: 329 147 adi_v5_cmsis_dap.c:156 cmsis_dap_queue_ap_write(): CMSIS-ADI: cmsis_dap_queue_ap_write 12 0x00000000
Debug: 330 147 adi_v5_cmsis_dap.c:233 cmsis_dap_run(): CMSIS-ADI: cmsis_dap_run
Debug: 331 147 target.c:2166 target_write_u32(): address: 0xe000200c, value: 0x00000000
Debug: 332 147 adi_v5_cmsis_dap.c:156 cmsis_dap_queue_ap_write(): CMSIS-ADI: cmsis_dap_queue_ap_write 4 0xe000200c
Debug: 333 147 adi_v5_cmsis_dap.c:156 cmsis_dap_queue_ap_write(): CMSIS-ADI: cmsis_dap_queue_ap_write 12 0x00000000
Debug: 334 147 adi_v5_cmsis_dap.c:233 cmsis_dap_run(): CMSIS-ADI: cmsis_dap_run
Debug: 335 147 target.c:2166 target_write_u32(): address: 0xe0002010, value: 0x00000000
Debug: 336 147 adi_v5_cmsis_dap.c:156 cmsis_dap_queue_ap_write(): CMSIS-ADI: cmsis_dap_queue_ap_write 4 0xe0002010
Debug: 337 147 adi_v5_cmsis_dap.c:156 cmsis_dap_queue_ap_write(): CMSIS-ADI: cmsis_dap_queue_ap_write 12 0x00000000
Debug: 338 147 adi_v5_cmsis_dap.c:233 cmsis_dap_run(): CMSIS-ADI: cmsis_dap_run
Debug: 339 147 target.c:2166 target_write_u32(): address: 0xe0002014, value: 0x00000000
Debug: 340 147 adi_v5_cmsis_dap.c:156 cmsis_dap_queue_ap_write(): CMSIS-ADI: cmsis_dap_queue_ap_write 4 0xe0002014
Debug: 341 147 adi_v5_cmsis_dap.c:156 cmsis_dap_queue_ap_write(): CMSIS-ADI: cmsis_dap_queue_ap_write 12 0x00000000
Debug: 342 147 adi_v5_cmsis_dap.c:233 cmsis_dap_run(): CMSIS-ADI: cmsis_dap_run
Debug: 343 147 cortex_m.c:2125 cortex_m_examine(): FPB fpcr 0x40, numcode 4, numlit 0
Debug: 344 147 adi_v5_cmsis_dap.c:156 cmsis_dap_queue_ap_write(): CMSIS-ADI: cmsis_dap_queue_ap_write 4 0xe0001000
Debug: 345 147 adi_v5_cmsis_dap.c:136 cmsis_dap_queue_ap_read(): CMSIS-ADI: cmsis_dap_queue_ap_read 12
Debug: 346 147 adi_v5_cmsis_dap.c:233 cmsis_dap_run(): CMSIS-ADI: cmsis_dap_run
Debug: 347 147 target.c:2078 target_read_u32(): address: 0xe0001000, value: 0x20000000
Debug: 348 147 target.c:2166 target_write_u32(): address: 0xe0001028, value: 0x00000000
Debug: 349 147 adi_v5_cmsis_dap.c:156 cmsis_dap_queue_ap_write(): CMSIS-ADI: cmsis_dap_queue_ap_write 4 0xe0001028
Debug: 350 147 adi_v5_cmsis_dap.c:156 cmsis_dap_queue_ap_write(): CMSIS-ADI: cmsis_dap_queue_ap_write 12 0x00000000
Debug: 351 147 adi_v5_cmsis_dap.c:233 cmsis_dap_run(): CMSIS-ADI: cmsis_dap_run
Debug: 352 147 target.c:2166 target_write_u32(): address: 0xe0001038, value: 0x00000000
Debug: 353 147 adi_v5_cmsis_dap.c:156 cmsis_dap_queue_ap_write(): CMSIS-ADI: cmsis_dap_queue_ap_write 4 0xe0001038
Debug: 354 147 adi_v5_cmsis_dap.c:156 cmsis_dap_queue_ap_write(): CMSIS-ADI: cmsis_dap_queue_ap_write 12 0x00000000
Debug: 355 147 adi_v5_cmsis_dap.c:233 cmsis_dap_run(): CMSIS-ADI: cmsis_dap_run
Debug: 356 147 cortex_m.c:1980 cortex_m_dwt_setup(): DWT dwtcr 0x20000000, comp 2, watch/trigger
Info : 357 147 cortex_m.c:2135 cortex_m_examine(): GBQ868.cpu: hardware has 4 breakpoints, 2 watchpoints
Debug: 358 147 target.c:1415 target_call_event_callbacks(): target event 22 (examine-end)
Debug: 359 147 target.c:4436 target_handle_event(): target: (0) GBQ868.cpu (cortex_m) event: 22 (examine-end) action:  
 poll on
 halt
 #poll on

Debug: 360 147 command.c:145 script_debug(): command - ocd_command ocd_command type ocd_poll on
Debug: 361 147 command.c:145 script_debug(): command - poll ocd_poll on
Debug: 363 147 command.c:145 script_debug(): command - ocd_command ocd_command type ocd_halt
Debug: 364 147 command.c:145 script_debug(): command - halt ocd_halt
Debug: 365 147 adi_v5_cmsis_dap.c:156 cmsis_dap_queue_ap_write(): CMSIS-ADI: cmsis_dap_queue_ap_write 0 0xa2000002
Debug: 366 147 adi_v5_cmsis_dap.c:156 cmsis_dap_queue_ap_write(): CMSIS-ADI: cmsis_dap_queue_ap_write 4 0xe000edf0
Debug: 367 147 adi_v5_cmsis_dap.c:136 cmsis_dap_queue_ap_read(): CMSIS-ADI: cmsis_dap_queue_ap_read 16
Debug: 368 147 adi_v5_cmsis_dap.c:99 cmsis_dap_queue_dp_write(): CMSIS-ADI: cmsis_dap_queue_dp_write 8 0x00000010
Debug: 369 163 adi_v5_cmsis_dap.c:233 cmsis_dap_run(): CMSIS-ADI: cmsis_dap_run
Debug: 370 163 adi_v5_cmsis_dap.c:136 cmsis_dap_queue_ap_read(): CMSIS-ADI: cmsis_dap_queue_ap_read 16
Debug: 371 163 adi_v5_cmsis_dap.c:233 cmsis_dap_run(): CMSIS-ADI: cmsis_dap_run
Debug: 373 163 target.c:2667 handle_halt_command(): -
Debug: 374 163 cortex_m.c:653 cortex_m_halt(): target->state: halted
Debug: 375 163 cortex_m.c:656 cortex_m_halt(): target was already halted
Debug: 376 163 adi_v5_cmsis_dap.c:136 cmsis_dap_queue_ap_read(): CMSIS-ADI: cmsis_dap_queue_ap_read 16
Debug: 377 163 adi_v5_cmsis_dap.c:233 cmsis_dap_run(): CMSIS-ADI: cmsis_dap_run
Debug: 378 163 command.c:145 script_debug(): command - ocd_command ocd_command type ocd_flash init
Debug: 379 163 command.c:145 script_debug(): command - ocd_flash ocd_flash init
Debug: 380 163 adi_v5_cmsis_dap.c:136 cmsis_dap_queue_ap_read(): CMSIS-ADI: cmsis_dap_queue_ap_read 16
Debug: 381 163 adi_v5_cmsis_dap.c:233 cmsis_dap_run(): CMSIS-ADI: cmsis_dap_run
Debug: 383 163 tcl.c:1005 handle_flash_init_command(): Initializing flash devices...
Debug: 384 163 command.c:366 register_command_handler(): registering 'ocd_flash'...
Debug: 385 163 command.c:366 register_command_handler(): registering 'ocd_flash'...
Debug: 386 163 command.c:366 register_command_handler(): registering 'ocd_flash'...
Debug: 387 163 command.c:366 register_command_handler(): registering 'ocd_flash'...
Debug: 388 163 command.c:366 register_command_handler(): registering 'ocd_flash'...
Debug: 389 163 command.c:366 register_command_handler(): registering 'ocd_flash'...
Debug: 390 163 command.c:366 register_command_handler(): registering 'ocd_flash'...
Debug: 391 163 command.c:366 register_command_handler(): registering 'ocd_flash'...
Debug: 392 163 command.c:366 register_command_handler(): registering 'ocd_flash'...
Debug: 393 163 command.c:366 register_command_handler(): registering 'ocd_flash'...
Debug: 394 163 command.c:366 register_command_handler(): registering 'ocd_flash'...
Debug: 395 163 command.c:366 register_command_handler(): registering 'ocd_flash'...
Debug: 396 163 command.c:366 register_command_handler(): registering 'ocd_flash'...
Debug: 397 163 command.c:366 register_command_handler(): registering 'ocd_flash'...
Debug: 398 163 command.c:366 register_command_handler(): registering 'ocd_flash'...
Debug: 399 163 command.c:145 script_debug(): command - ocd_command ocd_command type ocd_mflash init
Debug: 400 163 command.c:145 script_debug(): command - ocd_mflash ocd_mflash init
Debug: 401 163 adi_v5_cmsis_dap.c:136 cmsis_dap_queue_ap_read(): CMSIS-ADI: cmsis_dap_queue_ap_read 16
Debug: 402 163 adi_v5_cmsis_dap.c:233 cmsis_dap_run(): CMSIS-ADI: cmsis_dap_run
Debug: 404 163 mflash.c:1379 handle_mflash_init_command(): Initializing mflash devices...
Debug: 405 163 command.c:145 script_debug(): command - ocd_command ocd_command type ocd_nand init
Debug: 406 163 command.c:145 script_debug(): command - ocd_nand ocd_nand init
Debug: 407 163 adi_v5_cmsis_dap.c:136 cmsis_dap_queue_ap_read(): CMSIS-ADI: cmsis_dap_queue_ap_read 16
Debug: 408 163 adi_v5_cmsis_dap.c:233 cmsis_dap_run(): CMSIS-ADI: cmsis_dap_run
Debug: 410 163 tcl.c:497 handle_nand_init_command(): Initializing NAND devices...
Debug: 411 163 command.c:145 script_debug(): command - ocd_command ocd_command type ocd_pld init
Debug: 412 163 command.c:145 script_debug(): command - ocd_pld ocd_pld init
Debug: 413 163 adi_v5_cmsis_dap.c:136 cmsis_dap_queue_ap_read(): CMSIS-ADI: cmsis_dap_queue_ap_read 16
Debug: 414 163 adi_v5_cmsis_dap.c:233 cmsis_dap_run(): CMSIS-ADI: cmsis_dap_run
Debug: 416 163 pld.c:207 handle_pld_init_command(): Initializing PLDs...
Debug: 417 263 adi_v5_cmsis_dap.c:136 cmsis_dap_queue_ap_read(): CMSIS-ADI: cmsis_dap_queue_ap_read 16
Debug: 418 263 adi_v5_cmsis_dap.c:233 cmsis_dap_run(): CMSIS-ADI: cmsis_dap_run
Debug: 419 363 adi_v5_cmsis_dap.c:136 cmsis_dap_queue_ap_read(): CMSIS-ADI: cmsis_dap_queue_ap_read 16
Debug: 420 363 adi_v5_cmsis_dap.c:233 cmsis_dap_run(): CMSIS-ADI: cmsis_dap_run
Debug: 421 463 adi_v5_cmsis_dap.c:136 cmsis_dap_queue_ap_read(): CMSIS-ADI: cmsis_dap_queue_ap_read 16
Debug: 422 463 adi_v5_cmsis_dap.c:233 cmsis_dap_run(): CMSIS-ADI: cmsis_dap_run
Debug: 423 564 adi_v5_cmsis_dap.c:136 cmsis_dap_queue_ap_read(): CMSIS-ADI: cmsis_dap_queue_ap_read 16
Debug: 424 564 adi_v5_cmsis_dap.c:233 cmsis_dap_run(): CMSIS-ADI: cmsis_dap_run
Debug: 425 664 adi_v5_cmsis_dap.c:136 cmsis_dap_queue_ap_read(): CMSIS-ADI: cmsis_dap_queue_ap_read 16
Debug: 426 664 adi_v5_cmsis_dap.c:233 cmsis_dap_run(): CMSIS-ADI: cmsis_dap_run
Debug: 427 764 adi_v5_cmsis_dap.c:136 cmsis_dap_queue_ap_read(): CMSIS-ADI: cmsis_dap_queue_ap_read 16
Debug: 428 764 adi_v5_cmsis_dap.c:233 cmsis_dap_run(): CMSIS-ADI: cmsis_dap_run
Debug: 429 873 adi_v5_cmsis_dap.c:136 cmsis_dap_queue_ap_read(): CMSIS-ADI: cmsis_dap_queue_ap_read 16
Debug: 430 873 adi_v5_cmsis_dap.c:233 cmsis_dap_run(): CMSIS-ADI: cmsis_dap_run
Debug: 431 981 adi_v5_cmsis_dap.c:136 cmsis_dap_queue_ap_read(): CMSIS-ADI: cmsis_dap_queue_ap_read 16
Debug: 432 981 adi_v5_cmsis_dap.c:233 cmsis_dap_run(): CMSIS-ADI: cmsis_dap_run
Debug: 433 1082 adi_v5_cmsis_dap.c:136 cmsis_dap_queue_ap_read(): CMSIS-ADI: cmsis_dap_queue_ap_read 16
Debug: 434 1082 adi_v5_cmsis_dap.c:233 cmsis_dap_run(): CMSIS-ADI: cmsis_dap_run
Debug: 435 1187 adi_v5_cmsis_dap.c:136 cmsis_dap_queue_ap_read(): CMSIS-ADI: cmsis_dap_queue_ap_read 16
Debug: 436 1187 adi_v5_cmsis_dap.c:233 cmsis_dap_run(): CMSIS-ADI: cmsis_dap_run
Debug: 437 1305 adi_v5_cmsis_dap.c:136 cmsis_dap_queue_ap_read(): CMSIS-ADI: cmsis_dap_queue_ap_read 16
Debug: 438 1305 adi_v5_cmsis_dap.c:233 cmsis_dap_run(): CMSIS-ADI: cmsis_dap_run
Debug: 439 1413 adi_v5_cmsis_dap.c:136 cmsis_dap_queue_ap_read(): CMSIS-ADI: cmsis_dap_queue_ap_read 16
Debug: 440 1413 adi_v5_cmsis_dap.c:233 cmsis_dap_run(): CMSIS-ADI: cmsis_dap_run
Debug: 441 1522 adi_v5_cmsis_dap.c:136 cmsis_dap_queue_ap_read(): CMSIS-ADI: cmsis_dap_queue_ap_read 16
Debug: 442 1522 adi_v5_cmsis_dap.c:233 cmsis_dap_run(): CMSIS-ADI: cmsis_dap_run
Debug: 443 1631 adi_v5_cmsis_dap.c:136 cmsis_dap_queue_ap_read(): CMSIS-ADI: cmsis_dap_queue_ap_read 16
Debug: 444 1631 adi_v5_cmsis_dap.c:233 cmsis_dap_run(): CMSIS-ADI: cmsis_dap_run
Debug: 445 1740 adi_v5_cmsis_dap.c:136 cmsis_dap_queue_ap_read(): CMSIS-ADI: cmsis_dap_queue_ap_read 16
Debug: 446 1741 adi_v5_cmsis_dap.c:233 cmsis_dap_run(): CMSIS-ADI: cmsis_dap_run
Info : 447 1774 server.c:92 add_connection(): accepting 'terminal' connection from 2333
Debug: 448 1882 adi_v5_cmsis_dap.c:136 cmsis_dap_queue_ap_read(): CMSIS-ADI: cmsis_dap_queue_ap_read 16
Debug: 449 1882 adi_v5_cmsis_dap.c:233 cmsis_dap_run(): CMSIS-ADI: cmsis_dap_run
Debug: 450 1990 adi_v5_cmsis_dap.c:136 cmsis_dap_queue_ap_read(): CMSIS-ADI: cmsis_dap_queue_ap_read 16
Debug: 451 1991 adi_v5_cmsis_dap.c:233 cmsis_dap_run(): CMSIS-ADI: cmsis_dap_run
Debug: 452 2098 adi_v5_cmsis_dap.c:136 cmsis_dap_queue_ap_read(): CMSIS-ADI: cmsis_dap_queue_ap_read 16
Debug: 453 2098 adi_v5_cmsis_dap.c:233 cmsis_dap_run(): CMSIS-ADI: cmsis_dap_run
Debug: 454 2208 adi_v5_cmsis_dap.c:136 cmsis_dap_queue_ap_read(): CMSIS-ADI: cmsis_dap_queue_ap_read 16
Debug: 455 2208 adi_v5_cmsis_dap.c:233 cmsis_dap_run(): CMSIS-ADI: cmsis_dap_run
Debug: 456 2317 adi_v5_cmsis_dap.c:136 cmsis_dap_queue_ap_read(): CMSIS-ADI: cmsis_dap_queue_ap_read 16
Debug: 457 2317 adi_v5_cmsis_dap.c:233 cmsis_dap_run(): CMSIS-ADI: cmsis_dap_run
Info : 458 2408 server.c:92 add_connection(): accepting 'gdb' connection from 3333
Debug: 459 2408 breakpoints.c:359 breakpoint_clear_target_internal(): Delete all breakpoints for target: GBQ868.cpu
Debug: 460 2408 breakpoints.c:516 watchpoint_clear_target(): Delete all watchpoints for target: GBQ868.cpu
Debug: 461 2408 target.c:1415 target_call_event_callbacks(): target event 23 (gdb-attach)
Debug: 462 2408 target.c:4436 target_handle_event(): target: (0) GBQ868.cpu (cortex_m) event: 23 (gdb-attach) action:  
 cortex_m reset_config sysresetreq
 #halt

Debug: 463 2408 command.c:145 script_debug(): command - ocd_command ocd_command type ocd_cortex_m reset_config sysresetreq
Debug: 464 2408 command.c:145 script_debug(): command - ocd_cortex_m ocd_cortex_m reset_config sysresetreq
Debug: 465 2408 adi_v5_cmsis_dap.c:136 cmsis_dap_queue_ap_read(): CMSIS-ADI: cmsis_dap_queue_ap_read 16
Debug: 466 2409 adi_v5_cmsis_dap.c:233 cmsis_dap_run(): CMSIS-ADI: cmsis_dap_run
User : 468 2409 command.c:546 command_print(): cortex_m reset_config sysresetreq
Debug: 469 2409 gpcm1f.c:470 gpcm1f_flash_probe(): Valid SPIFI on device gpcm1fxx at address 0x0
Info : 470 2409 gpcm1f.c:486 gpcm1f_flash_probe(): Found flash device 'GPCM1F          ' (ID 0x4750434d)
Info : 471 2409 gpcm3800_spifc.c:898 gpcm3800_spifc_flash_probe(): Allocating working area for GPCM3800 spifc_JILL_probe algorithm
Debug: 472 2409 target.c:1586 target_alloc_working_area_try(): MMU disabled, using physical address for working memory 0x20000100
Debug: 473 2409 target.c:1639 target_alloc_working_area_try(): allocated new working area of 1224 bytes at address 0x20000100
Debug: 474 2409 target.c:1502 print_wa_layout():  * 0x20000100-0x200005c7 (1224 bytes)
Debug: 475 2409 target.c:1502 print_wa_layout():    0x200005c8-0x200010ff (2872 bytes)
Info : 476 2409 gpcm3800_spifc.c:912 gpcm3800_spifc_flash_probe(): Writing probe algorithm to working area at 0x20000100
Debug: 477 2409 target.c:1869 target_write_buffer(): writing buffer of 1224 byte at 0x20000100
Debug: 478 2409 adi_v5_cmsis_dap.c:156 cmsis_dap_queue_ap_write(): CMSIS-ADI: cmsis_dap_queue_ap_write 4 0x20000100
Debug: 479 2409 adi_v5_cmsis_dap.c:99 cmsis_dap_queue_dp_write(): CMSIS-ADI: cmsis_dap_queue_dp_write 8 0x00000000
Debug: 480 2410 adi_v5_cmsis_dap.c:156 cmsis_dap_queue_ap_write(): CMSIS-ADI: cmsis_dap_queue_ap_write 0 0xa2000012
Debug: 481 2411 adi_v5_cmsis_dap.c:211 cmsis_dap_queue_ap_write_block(): CMSIS-ADI: cmsis_dap_queue_ap_write_block 0x00000300
Debug: 482 2420 adi_v5_cmsis_dap.c:156 cmsis_dap_queue_ap_write(): CMSIS-ADI: cmsis_dap_queue_ap_write 4 0x20000400
Debug: 483 2421 adi_v5_cmsis_dap.c:211 cmsis_dap_queue_ap_write_block(): CMSIS-ADI: cmsis_dap_queue_ap_write_block 0x000001c8
Debug: 484 2427 adi_v5_cmsis_dap.c:233 cmsis_dap_run(): CMSIS-ADI: cmsis_dap_run
Info : 485 2427 gpcm3800_spifc.c:935 gpcm3800_spifc_flash_probe(): probe spi clk [00000020]
Info : 486 2427 gpcm3800_spifc.c:937 gpcm3800_spifc_flash_probe(): Running GPCM3800 probe algorithm
Debug: 487 2427 target.c:1415 target_call_event_callbacks(): target event 3 (resume-start)
Debug: 488 2427 armv7m.c:209 armv7m_restore_context():  
Debug: 489 2427 armv7m.c:341 armv7m_write_core_reg(): write core reg 19 value 0x1
Debug: 490 2427 adi_v5_cmsis_dap.c:156 cmsis_dap_queue_ap_write(): CMSIS-ADI: cmsis_dap_queue_ap_write 0 0xa2000002
Debug: 491 2427 adi_v5_cmsis_dap.c:156 cmsis_dap_queue_ap_write(): CMSIS-ADI: cmsis_dap_queue_ap_write 4 0xe000edf0
Debug: 492 2428 adi_v5_cmsis_dap.c:156 cmsis_dap_queue_ap_write(): CMSIS-ADI: cmsis_dap_queue_ap_write 20 0x00000014
Debug: 493 2428 adi_v5_cmsis_dap.c:99 cmsis_dap_queue_dp_write(): CMSIS-ADI: cmsis_dap_queue_dp_write 8 0x00000010
Debug: 494 2430 adi_v5_cmsis_dap.c:136 cmsis_dap_queue_ap_read(): CMSIS-ADI: cmsis_dap_queue_ap_read 24
Debug: 495 2431 adi_v5_cmsis_dap.c:233 cmsis_dap_run(): CMSIS-ADI: cmsis_dap_run
Debug: 496 2431 adi_v5_cmsis_dap.c:156 cmsis_dap_queue_ap_write(): CMSIS-ADI: cmsis_dap_queue_ap_write 24 0x00000001
Debug: 497 2431 adi_v5_cmsis_dap.c:156 cmsis_dap_queue_ap_write(): CMSIS-ADI: cmsis_dap_queue_ap_write 20 0x00010014
Debug: 498 2432 adi_v5_cmsis_dap.c:233 cmsis_dap_run(): CMSIS-ADI: cmsis_dap_run
Debug: 499 2432 cortex_m.c:1733 cortex_m_store_core_reg_u32(): write special reg 19 value 0x1 
Debug: 500 2432 armv7m.c:341 armv7m_write_core_reg(): write core reg 16 value 0x1000000
Debug: 501 2432 adi_v5_cmsis_dap.c:156 cmsis_dap_queue_ap_write(): CMSIS-ADI: cmsis_dap_queue_ap_write 24 0x01000000
Debug: 502 2433 adi_v5_cmsis_dap.c:156 cmsis_dap_queue_ap_write(): CMSIS-ADI: cmsis_dap_queue_ap_write 20 0x00010010
Debug: 503 2434 adi_v5_cmsis_dap.c:233 cmsis_dap_run(): CMSIS-ADI: cmsis_dap_run
Debug: 504 2434 cortex_m.c:1666 cortex_m_store_core_reg_u32(): write core reg 16 value 0x1000000
Debug: 505 2434 armv7m.c:341 armv7m_write_core_reg(): write core reg 15 value 0x20000100
Debug: 506 2434 adi_v5_cmsis_dap.c:156 cmsis_dap_queue_ap_write(): CMSIS-ADI: cmsis_dap_queue_ap_write 24 0x20000100
Debug: 507 2434 adi_v5_cmsis_dap.c:156 cmsis_dap_queue_ap_write(): CMSIS-ADI: cmsis_dap_queue_ap_write 20 0x0001000f
Debug: 508 2435 adi_v5_cmsis_dap.c:233 cmsis_dap_run(): CMSIS-ADI: cmsis_dap_run
Debug: 509 2435 cortex_m.c:1666 cortex_m_store_core_reg_u32(): write core reg 15 value 0x20000100
Debug: 510 2435 armv7m.c:341 armv7m_write_core_reg(): write core reg 0 value 0x20
Debug: 511 2435 adi_v5_cmsis_dap.c:156 cmsis_dap_queue_ap_write(): CMSIS-ADI: cmsis_dap_queue_ap_write 24 0x00000020
Debug: 512 2436 adi_v5_cmsis_dap.c:156 cmsis_dap_queue_ap_write(): CMSIS-ADI: cmsis_dap_queue_ap_write 20 0x00010000
Debug: 513 2437 adi_v5_cmsis_dap.c:233 cmsis_dap_run(): CMSIS-ADI: cmsis_dap_run
Debug: 514 2437 cortex_m.c:1666 cortex_m_store_core_reg_u32(): write core reg 0 value 0x20
Debug: 515 2437 adi_v5_cmsis_dap.c:156 cmsis_dap_queue_ap_write(): CMSIS-ADI: cmsis_dap_queue_ap_write 16 0xa05f0001
Debug: 516 2437 adi_v5_cmsis_dap.c:233 cmsis_dap_run(): CMSIS-ADI: cmsis_dap_run
Debug: 517 2438 target.c:1415 target_call_event_callbacks(): target event 20 (debug-resumed)
Debug: 518 2438 cortex_m.c:847 cortex_m_resume(): target debug resumed at 0x20000100
Debug: 519 2438 target.c:1415 target_call_event_callbacks(): target event 4 (resume-end)
Debug: 520 2438 adi_v5_cmsis_dap.c:136 cmsis_dap_queue_ap_read(): CMSIS-ADI: cmsis_dap_queue_ap_read 16
Debug: 521 2438 adi_v5_cmsis_dap.c:233 cmsis_dap_run(): CMSIS-ADI: cmsis_dap_run
Debug: 522 2438 cortex_m.c:623 cortex_m_poll():  
Debug: 523 2438 cortex_m.c:455 cortex_m_debug_entry():  
Debug: 524 2438 adi_v5_cmsis_dap.c:156 cmsis_dap_queue_ap_write(): CMSIS-ADI: cmsis_dap_queue_ap_write 16 0xa05f0003
Debug: 525 2439 adi_v5_cmsis_dap.c:233 cmsis_dap_run(): CMSIS-ADI: cmsis_dap_run
Debug: 526 2439 adi_v5_cmsis_dap.c:156 cmsis_dap_queue_ap_write(): CMSIS-ADI: cmsis_dap_queue_ap_write 4 0xe000ed30
Debug: 527 2439 adi_v5_cmsis_dap.c:99 cmsis_dap_queue_dp_write(): CMSIS-ADI: cmsis_dap_queue_dp_write 8 0x00000000
Debug: 528 2440 adi_v5_cmsis_dap.c:136 cmsis_dap_queue_ap_read(): CMSIS-ADI: cmsis_dap_queue_ap_read 16
Debug: 529 2440 adi_v5_cmsis_dap.c:99 cmsis_dap_queue_dp_write(): CMSIS-ADI: cmsis_dap_queue_dp_write 8 0x00000010
Debug: 530 2442 adi_v5_cmsis_dap.c:233 cmsis_dap_run(): CMSIS-ADI: cmsis_dap_run
Debug: 531 2442 adi_v5_cmsis_dap.c:156 cmsis_dap_queue_ap_write(): CMSIS-ADI: cmsis_dap_queue_ap_write 16 0x00000003
Debug: 532 2443 adi_v5_cmsis_dap.c:233 cmsis_dap_run(): CMSIS-ADI: cmsis_dap_run
Debug: 533 2443 cortex_m.c:203 cortex_m_clear_halt():  NVIC_DFSR 0x3
Debug: 534 2443 adi_v5_cmsis_dap.c:156 cmsis_dap_queue_ap_write(): CMSIS-ADI: cmsis_dap_queue_ap_write 4 0xe000edf0
Debug: 535 2443 adi_v5_cmsis_dap.c:99 cmsis_dap_queue_dp_write(): CMSIS-ADI: cmsis_dap_queue_dp_write 8 0x00000000
Debug: 536 2444 adi_v5_cmsis_dap.c:136 cmsis_dap_queue_ap_read(): CMSIS-ADI: cmsis_dap_queue_ap_read 16
Debug: 537 2444 adi_v5_cmsis_dap.c:99 cmsis_dap_queue_dp_write(): CMSIS-ADI: cmsis_dap_queue_dp_write 8 0x00000010
Debug: 538 2446 adi_v5_cmsis_dap.c:233 cmsis_dap_run(): CMSIS-ADI: cmsis_dap_run
Debug: 539 2446 adi_v5_cmsis_dap.c:156 cmsis_dap_queue_ap_write(): CMSIS-ADI: cmsis_dap_queue_ap_write 20 0x00000000
Debug: 540 2447 adi_v5_cmsis_dap.c:136 cmsis_dap_queue_ap_read(): CMSIS-ADI: cmsis_dap_queue_ap_read 24
Debug: 541 2447 adi_v5_cmsis_dap.c:233 cmsis_dap_run(): CMSIS-ADI: cmsis_dap_run
Debug: 542 2447 cortex_m.c:1568 cortex_m_load_core_reg_u32(): load from core reg 0  value 0x18
Debug: 543 2447 adi_v5_cmsis_dap.c:156 cmsis_dap_queue_ap_write(): CMSIS-ADI: cmsis_dap_queue_ap_write 20 0x00000001
Debug: 544 2448 adi_v5_cmsis_dap.c:136 cmsis_dap_queue_ap_read(): CMSIS-ADI: cmsis_dap_queue_ap_read 24
Debug: 545 2449 adi_v5_cmsis_dap.c:233 cmsis_dap_run(): CMSIS-ADI: cmsis_dap_run
Debug: 546 2449 cortex_m.c:1568 cortex_m_load_core_reg_u32(): load from core reg 1  value 0x1
Debug: 547 2449 adi_v5_cmsis_dap.c:156 cmsis_dap_queue_ap_write(): CMSIS-ADI: cmsis_dap_queue_ap_write 20 0x00000002
Debug: 548 2450 adi_v5_cmsis_dap.c:136 cmsis_dap_queue_ap_read(): CMSIS-ADI: cmsis_dap_queue_ap_read 24
Debug: 549 2450 adi_v5_cmsis_dap.c:233 cmsis_dap_run(): CMSIS-ADI: cmsis_dap_run
Debug: 550 2450 cortex_m.c:1568 cortex_m_load_core_reg_u32(): load from core reg 2  value 0x1
Debug: 551 2450 adi_v5_cmsis_dap.c:156 cmsis_dap_queue_ap_write(): CMSIS-ADI: cmsis_dap_queue_ap_write 20 0x00000003
Debug: 552 2450 adi_v5_cmsis_dap.c:136 cmsis_dap_queue_ap_read(): CMSIS-ADI: cmsis_dap_queue_ap_read 24
Debug: 553 2451 adi_v5_cmsis_dap.c:233 cmsis_dap_run(): CMSIS-ADI: cmsis_dap_run
Debug: 554 2451 cortex_m.c:1568 cortex_m_load_core_reg_u32(): load from core reg 3  value 0x50060000
Debug: 555 2451 adi_v5_cmsis_dap.c:156 cmsis_dap_queue_ap_write(): CMSIS-ADI: cmsis_dap_queue_ap_write 20 0x00000004
Debug: 556 2453 adi_v5_cmsis_dap.c:136 cmsis_dap_queue_ap_read(): CMSIS-ADI: cmsis_dap_queue_ap_read 24
Debug: 557 2453 adi_v5_cmsis_dap.c:233 cmsis_dap_run(): CMSIS-ADI: cmsis_dap_run
Debug: 558 2453 cortex_m.c:1568 cortex_m_load_core_reg_u32(): load from core reg 4  value 0x18
Debug: 559 2453 adi_v5_cmsis_dap.c:156 cmsis_dap_queue_ap_write(): CMSIS-ADI: cmsis_dap_queue_ap_write 20 0x00000005
Debug: 560 2454 adi_v5_cmsis_dap.c:136 cmsis_dap_queue_ap_read(): CMSIS-ADI: cmsis_dap_queue_ap_read 24
Debug: 561 2455 adi_v5_cmsis_dap.c:233 cmsis_dap_run(): CMSIS-ADI: cmsis_dap_run
Debug: 562 2455 cortex_m.c:1568 cortex_m_load_core_reg_u32(): load from core reg 5  value 0x0
Debug: 563 2455 adi_v5_cmsis_dap.c:156 cmsis_dap_queue_ap_write(): CMSIS-ADI: cmsis_dap_queue_ap_write 20 0x00000006
Debug: 564 2456 adi_v5_cmsis_dap.c:136 cmsis_dap_queue_ap_read(): CMSIS-ADI: cmsis_dap_queue_ap_read 24
Debug: 565 2457 adi_v5_cmsis_dap.c:233 cmsis_dap_run(): CMSIS-ADI: cmsis_dap_run
Debug: 566 2457 cortex_m.c:1568 cortex_m_load_core_reg_u32(): load from core reg 6  value 0x0
Debug: 567 2457 adi_v5_cmsis_dap.c:156 cmsis_dap_queue_ap_write(): CMSIS-ADI: cmsis_dap_queue_ap_write 20 0x00000007
Debug: 568 2457 adi_v5_cmsis_dap.c:136 cmsis_dap_queue_ap_read(): CMSIS-ADI: cmsis_dap_queue_ap_read 24
Debug: 569 2458 adi_v5_cmsis_dap.c:233 cmsis_dap_run(): CMSIS-ADI: cmsis_dap_run
Debug: 570 2458 cortex_m.c:1568 cortex_m_load_core_reg_u32(): load from core reg 7  value 0x46
Debug: 571 2458 adi_v5_cmsis_dap.c:156 cmsis_dap_queue_ap_write(): CMSIS-ADI: cmsis_dap_queue_ap_write 20 0x00000008
Debug: 572 2459 adi_v5_cmsis_dap.c:136 cmsis_dap_queue_ap_read(): CMSIS-ADI: cmsis_dap_queue_ap_read 24
Debug: 573 2459 adi_v5_cmsis_dap.c:233 cmsis_dap_run(): CMSIS-ADI: cmsis_dap_run
Debug: 574 2459 cortex_m.c:1568 cortex_m_load_core_reg_u32(): load from core reg 8  value 0x40
Debug: 575 2459 adi_v5_cmsis_dap.c:156 cmsis_dap_queue_ap_write(): CMSIS-ADI: cmsis_dap_queue_ap_write 20 0x00000009
Debug: 576 2461 adi_v5_cmsis_dap.c:136 cmsis_dap_queue_ap_read(): CMSIS-ADI: cmsis_dap_queue_ap_read 24
Debug: 577 2461 adi_v5_cmsis_dap.c:233 cmsis_dap_run(): CMSIS-ADI: cmsis_dap_run
Debug: 578 2461 cortex_m.c:1568 cortex_m_load_core_reg_u32(): load from core reg 9  value 0xffffffff
Debug: 579 2461 adi_v5_cmsis_dap.c:156 cmsis_dap_queue_ap_write(): CMSIS-ADI: cmsis_dap_queue_ap_write 20 0x0000000a
Debug: 580 2462 adi_v5_cmsis_dap.c:136 cmsis_dap_queue_ap_read(): CMSIS-ADI: cmsis_dap_queue_ap_read 24
Debug: 581 2463 adi_v5_cmsis_dap.c:233 cmsis_dap_run(): CMSIS-ADI: cmsis_dap_run
Debug: 582 2463 cortex_m.c:1568 cortex_m_load_core_reg_u32(): load from core reg 10  value 0xffffffff
Debug: 583 2463 adi_v5_cmsis_dap.c:156 cmsis_dap_queue_ap_write(): CMSIS-ADI: cmsis_dap_queue_ap_write 20 0x0000000b
Debug: 584 2464 adi_v5_cmsis_dap.c:136 cmsis_dap_queue_ap_read(): CMSIS-ADI: cmsis_dap_queue_ap_read 24
Debug: 585 2464 adi_v5_cmsis_dap.c:233 cmsis_dap_run(): CMSIS-ADI: cmsis_dap_run
Debug: 586 2464 cortex_m.c:1568 cortex_m_load_core_reg_u32(): load from core reg 11  value 0xffffffff
Debug: 587 2464 adi_v5_cmsis_dap.c:156 cmsis_dap_queue_ap_write(): CMSIS-ADI: cmsis_dap_queue_ap_write 20 0x0000000c
Debug: 588 2465 adi_v5_cmsis_dap.c:136 cmsis_dap_queue_ap_read(): CMSIS-ADI: cmsis_dap_queue_ap_read 24
Debug: 589 2466 adi_v5_cmsis_dap.c:233 cmsis_dap_run(): CMSIS-ADI: cmsis_dap_run
Debug: 590 2466 cortex_m.c:1568 cortex_m_load_core_reg_u32(): load from core reg 12  value 0xffffffff
Debug: 591 2466 adi_v5_cmsis_dap.c:156 cmsis_dap_queue_ap_write(): CMSIS-ADI: cmsis_dap_queue_ap_write 20 0x0000000d
Debug: 592 2467 adi_v5_cmsis_dap.c:136 cmsis_dap_queue_ap_read(): CMSIS-ADI: cmsis_dap_queue_ap_read 24
Debug: 593 2467 adi_v5_cmsis_dap.c:233 cmsis_dap_run(): CMSIS-ADI: cmsis_dap_run
Debug: 594 2467 cortex_m.c:1568 cortex_m_load_core_reg_u32(): load from core reg 13  value 0x20004000
Debug: 595 2467 adi_v5_cmsis_dap.c:156 cmsis_dap_queue_ap_write(): CMSIS-ADI: cmsis_dap_queue_ap_write 20 0x0000000e
Debug: 596 2468 adi_v5_cmsis_dap.c:136 cmsis_dap_queue_ap_read(): CMSIS-ADI: cmsis_dap_queue_ap_read 24
Debug: 597 2469 adi_v5_cmsis_dap.c:233 cmsis_dap_run(): CMSIS-ADI: cmsis_dap_run
Debug: 598 2469 cortex_m.c:1568 cortex_m_load_core_reg_u32(): load from core reg 14  value 0xffffffff
Debug: 599 2469 adi_v5_cmsis_dap.c:156 cmsis_dap_queue_ap_write(): CMSIS-ADI: cmsis_dap_queue_ap_write 20 0x0000000f
Debug: 600 2470 adi_v5_cmsis_dap.c:136 cmsis_dap_queue_ap_read(): CMSIS-ADI: cmsis_dap_queue_ap_read 24
Debug: 601 2470 adi_v5_cmsis_dap.c:233 cmsis_dap_run(): CMSIS-ADI: cmsis_dap_run
Debug: 602 2470 cortex_m.c:1568 cortex_m_load_core_reg_u32(): load from core reg 15  value 0x20000562
Debug: 603 2470 adi_v5_cmsis_dap.c:156 cmsis_dap_queue_ap_write(): CMSIS-ADI: cmsis_dap_queue_ap_write 20 0x00000010
Debug: 604 2471 adi_v5_cmsis_dap.c:136 cmsis_dap_queue_ap_read(): CMSIS-ADI: cmsis_dap_queue_ap_read 24
Debug: 605 2472 adi_v5_cmsis_dap.c:233 cmsis_dap_run(): CMSIS-ADI: cmsis_dap_run
Debug: 606 2472 cortex_m.c:1568 cortex_m_load_core_reg_u32(): load from core reg 16  value 0x21000000
Debug: 607 2472 adi_v5_cmsis_dap.c:156 cmsis_dap_queue_ap_write(): CMSIS-ADI: cmsis_dap_queue_ap_write 20 0x00000011
Debug: 608 2473 adi_v5_cmsis_dap.c:136 cmsis_dap_queue_ap_read(): CMSIS-ADI: cmsis_dap_queue_ap_read 24
Debug: 609 2474 adi_v5_cmsis_dap.c:233 cmsis_dap_run(): CMSIS-ADI: cmsis_dap_run
Debug: 610 2474 cortex_m.c:1568 cortex_m_load_core_reg_u32(): load from core reg 17  value 0x20004000
Debug: 611 2474 adi_v5_cmsis_dap.c:156 cmsis_dap_queue_ap_write(): CMSIS-ADI: cmsis_dap_queue_ap_write 20 0x00000012
Debug: 612 2474 adi_v5_cmsis_dap.c:136 cmsis_dap_queue_ap_read(): CMSIS-ADI: cmsis_dap_queue_ap_read 24
Debug: 613 2474 adi_v5_cmsis_dap.c:233 cmsis_dap_run(): CMSIS-ADI: cmsis_dap_run
Debug: 614 2474 cortex_m.c:1568 cortex_m_load_core_reg_u32(): load from core reg 18  value 0xfffffffc
Debug: 615 2474 adi_v5_cmsis_dap.c:156 cmsis_dap_queue_ap_write(): CMSIS-ADI: cmsis_dap_queue_ap_write 20 0x00000014
Debug: 616 2475 adi_v5_cmsis_dap.c:136 cmsis_dap_queue_ap_read(): CMSIS-ADI: cmsis_dap_queue_ap_read 24
Debug: 617 2476 adi_v5_cmsis_dap.c:233 cmsis_dap_run(): CMSIS-ADI: cmsis_dap_run
Debug: 618 2476 cortex_m.c:1634 cortex_m_load_core_reg_u32(): load from special reg 19 value 0x1
Debug: 619 2476 adi_v5_cmsis_dap.c:156 cmsis_dap_queue_ap_write(): CMSIS-ADI: cmsis_dap_queue_ap_write 20 0x00000014
Debug: 620 2477 adi_v5_cmsis_dap.c:136 cmsis_dap_queue_ap_read(): CMSIS-ADI: cmsis_dap_queue_ap_read 24
Debug: 621 2478 adi_v5_cmsis_dap.c:233 cmsis_dap_run(): CMSIS-ADI: cmsis_dap_run
Debug: 622 2478 cortex_m.c:1634 cortex_m_load_core_reg_u32(): load from special reg 20 value 0x0
Debug: 623 2478 adi_v5_cmsis_dap.c:156 cmsis_dap_queue_ap_write(): CMSIS-ADI: cmsis_dap_queue_ap_write 20 0x00000014
Debug: 624 2479 adi_v5_cmsis_dap.c:136 cmsis_dap_queue_ap_read(): CMSIS-ADI: cmsis_dap_queue_ap_read 24
Debug: 625 2480 adi_v5_cmsis_dap.c:233 cmsis_dap_run(): CMSIS-ADI: cmsis_dap_run
Debug: 626 2480 cortex_m.c:1634 cortex_m_load_core_reg_u32(): load from special reg 21 value 0x0
Debug: 627 2480 adi_v5_cmsis_dap.c:156 cmsis_dap_queue_ap_write(): CMSIS-ADI: cmsis_dap_queue_ap_write 20 0x00000014
Debug: 628 2480 adi_v5_cmsis_dap.c:136 cmsis_dap_queue_ap_read(): CMSIS-ADI: cmsis_dap_queue_ap_read 24
Debug: 629 2481 adi_v5_cmsis_dap.c:233 cmsis_dap_run(): CMSIS-ADI: cmsis_dap_run
Debug: 630 2481 cortex_m.c:1634 cortex_m_load_core_reg_u32(): load from special reg 22 value 0x0
Debug: 631 2481 cortex_m.c:515 cortex_m_debug_entry(): entered debug state in core mode: Thread at PC 0x20000562, target->state: halted
Debug: 632 2481 target.c:1415 target_call_event_callbacks(): target event 19 (debug-halted)
Debug: 633 2481 adi_v5_cmsis_dap.c:156 cmsis_dap_queue_ap_write(): CMSIS-ADI: cmsis_dap_queue_ap_write 20 0x0000000f
Debug: 634 2482 adi_v5_cmsis_dap.c:136 cmsis_dap_queue_ap_read(): CMSIS-ADI: cmsis_dap_queue_ap_read 24
Debug: 635 2483 adi_v5_cmsis_dap.c:233 cmsis_dap_run(): CMSIS-ADI: cmsis_dap_run
Debug: 636 2483 cortex_m.c:1568 cortex_m_load_core_reg_u32(): load from core reg 15  value 0x20000562
Debug: 637 2483 armv7m.c:575 armv7m_wait_algorithm(): restoring register primask with value 0x00000000
Debug: 638 2483 armv7m.c:575 armv7m_wait_algorithm(): restoring register psp with value 0x00000000
Debug: 639 2483 armv7m.c:575 armv7m_wait_algorithm(): restoring register msp with value 0x00000000
Debug: 640 2483 armv7m.c:575 armv7m_wait_algorithm(): restoring register xPSR with value 0x00000000
Debug: 641 2483 armv7m.c:575 armv7m_wait_algorithm(): restoring register pc with value 0x00000000
Debug: 642 2483 armv7m.c:575 armv7m_wait_algorithm(): restoring register lr with value 0x00000000
Debug: 643 2483 armv7m.c:575 armv7m_wait_algorithm(): restoring register sp with value 0x00000000
Debug: 644 2483 armv7m.c:575 armv7m_wait_algorithm(): restoring register r12 with value 0x00000000
Debug: 645 2483 armv7m.c:575 armv7m_wait_algorithm(): restoring register r11 with value 0x00000000
Debug: 646 2483 armv7m.c:575 armv7m_wait_algorithm(): restoring register r10 with value 0x00000000
Debug: 647 2483 armv7m.c:575 armv7m_wait_algorithm(): restoring register r9 with value 0x00000000
Debug: 648 2483 armv7m.c:575 armv7m_wait_algorithm(): restoring register r8 with value 0x00000000
Debug: 649 2483 armv7m.c:575 armv7m_wait_algorithm(): restoring register r7 with value 0x00000000
Debug: 650 2483 armv7m.c:575 armv7m_wait_algorithm(): restoring register r4 with value 0x00000000
Debug: 651 2483 armv7m.c:575 armv7m_wait_algorithm(): restoring register r3 with value 0x00000000
Debug: 652 2483 armv7m.c:575 armv7m_wait_algorithm(): restoring register r2 with value 0x00000000
Debug: 653 2483 armv7m.c:575 armv7m_wait_algorithm(): restoring register r1 with value 0x00000000
Debug: 654 2483 armv7m.c:575 armv7m_wait_algorithm(): restoring register r0 with value 0x00000000
Debug: 655 2483 target.c:1708 target_free_working_area_restore(): freed 1224 bytes of working area at address 0x20000100
Debug: 656 2483 target.c:1502 print_wa_layout():    0x20000100-0x200010ff (4096 bytes)
Info : 657 2483 gpcm3800_spifc.c:961 gpcm3800_spifc_flash_probe(): Found Similar flash device 'GPR 25L12805' (ID 0x001820c2)
Debug: 658 2483 gdb_server.c:1008 gdb_new_connection(): New GDB Connection: 1, Target GBQ868.cpu, state: halted
Debug: 659 2483 gdb_server.c:2836 gdb_input_inner(): received packet: 'qSupported:multiprocess+;qRelocInsn+'
Debug: 660 2483 gdb_server.c:2836 gdb_input_inner(): received packet: 'QStartNoAckMode'
Debug: 661 2483 gdb_server.c:634 gdb_get_packet_inner(): Received first acknowledgment after entering noack mode. Ignoring it.
Debug: 662 2483 gdb_server.c:2836 gdb_input_inner(): received packet: 'Hg0'
Debug: 663 2483 gdb_server.c:2836 gdb_input_inner(): received packet: 'qXfer:features:read:target.xml:0,fff'
Debug: 664 2484 gdb_server.c:2836 gdb_input_inner(): received packet: 'qTStatus'
Debug: 665 2484 gdb_server.c:2836 gdb_input_inner(): received packet: '?'
Debug: 666 2484 gdb_server.c:2836 gdb_input_inner(): received packet: 'qXfer:threads:read::0,fff'
Debug: 667 2484 gdb_server.c:2836 gdb_input_inner(): received packet: 'Hc-1'
Debug: 668 2484 gdb_server.c:2836 gdb_input_inner(): received packet: 'qC'
Debug: 669 2484 gdb_server.c:2836 gdb_input_inner(): received packet: 'qAttached'
Debug: 670 2484 gdb_server.c:2836 gdb_input_inner(): received packet: 'qOffsets'
Debug: 671 2484 gdb_server.c:2836 gdb_input_inner(): received packet: 'g'
Debug: 672 2484 gdb_server.c:2836 gdb_input_inner(): received packet: 'qXfer:memory-map:read::0,fff'
Debug: 673 2484 gdb_server.c:2836 gdb_input_inner(): received packet: 'm0,4'
Debug: 674 2484 gdb_server.c:1401 gdb_read_memory_packet(): addr: 0x00000000, len: 0x00000004
Debug: 675 2484 target.c:1930 target_read_buffer(): reading buffer of 4 byte at 0x00000000
Debug: 676 2484 adi_v5_cmsis_dap.c:156 cmsis_dap_queue_ap_write(): CMSIS-ADI: cmsis_dap_queue_ap_write 4 0x00000000
Debug: 677 2484 adi_v5_cmsis_dap.c:99 cmsis_dap_queue_dp_write(): CMSIS-ADI: cmsis_dap_queue_dp_write 8 0x00000000
Debug: 678 2486 adi_v5_cmsis_dap.c:156 cmsis_dap_queue_ap_write(): CMSIS-ADI: cmsis_dap_queue_ap_write 0 0xa2000012
Debug: 679 2487 adi_v5_cmsis_dap.c:136 cmsis_dap_queue_ap_read(): CMSIS-ADI: cmsis_dap_queue_ap_read 12
Debug: 680 2488 adi_v5_cmsis_dap.c:233 cmsis_dap_run(): CMSIS-ADI: cmsis_dap_run
Debug: 681 2489 gdb_server.c:2836 gdb_input_inner(): received packet: 'qSymbol::'
Debug: 682 2506 gdb_server.c:2836 gdb_input_inner(): received packet: 'm50000004,4'
Debug: 683 2506 gdb_server.c:1401 gdb_read_memory_packet(): addr: 0x50000004, len: 0x00000004
Debug: 684 2506 target.c:1930 target_read_buffer(): reading buffer of 4 byte at 0x50000004
Debug: 685 2506 adi_v5_cmsis_dap.c:156 cmsis_dap_queue_ap_write(): CMSIS-ADI: cmsis_dap_queue_ap_write 4 0x50000004
Debug: 686 2506 adi_v5_cmsis_dap.c:136 cmsis_dap_queue_ap_read(): CMSIS-ADI: cmsis_dap_queue_ap_read 12
Debug: 687 2508 adi_v5_cmsis_dap.c:233 cmsis_dap_run(): CMSIS-ADI: cmsis_dap_run
Debug: 688 2508 adi_v5_cmsis_dap.c:156 cmsis_dap_queue_ap_write(): CMSIS-ADI: cmsis_dap_queue_ap_write 0 0xa2000002
Debug: 689 2509 adi_v5_cmsis_dap.c:156 cmsis_dap_queue_ap_write(): CMSIS-ADI: cmsis_dap_queue_ap_write 4 0xe000edf0
Debug: 690 2510 adi_v5_cmsis_dap.c:136 cmsis_dap_queue_ap_read(): CMSIS-ADI: cmsis_dap_queue_ap_read 16
Debug: 691 2510 adi_v5_cmsis_dap.c:99 cmsis_dap_queue_dp_write(): CMSIS-ADI: cmsis_dap_queue_dp_write 8 0x00000010
Debug: 692 2511 adi_v5_cmsis_dap.c:233 cmsis_dap_run(): CMSIS-ADI: cmsis_dap_run
Debug: 693 2621 adi_v5_cmsis_dap.c:136 cmsis_dap_queue_ap_read(): CMSIS-ADI: cmsis_dap_queue_ap_read 16
Debug: 694 2621 adi_v5_cmsis_dap.c:233 cmsis_dap_run(): CMSIS-ADI: cmsis_dap_run
Debug: 695 2653 gdb_server.c:2836 gdb_input_inner(): received packet: 'qRcmd,666c617368206d6173735f6572617365'
Debug: 696 2653 adi_v5_cmsis_dap.c:136 cmsis_dap_queue_ap_read(): CMSIS-ADI: cmsis_dap_queue_ap_read 16
Debug: 697 2653 adi_v5_cmsis_dap.c:233 cmsis_dap_run(): CMSIS-ADI: cmsis_dap_run
Debug: 698 2653 command.c:145 script_debug(): command - ocd_command ocd_command type ocd_flash mass_erase
Debug: 699 2653 command.c:145 script_debug(): command - ocd_flash ocd_flash mass_erase
Debug: 700 2653 adi_v5_cmsis_dap.c:136 cmsis_dap_queue_ap_read(): CMSIS-ADI: cmsis_dap_queue_ap_read 16
Debug: 701 2653 adi_v5_cmsis_dap.c:233 cmsis_dap_run(): CMSIS-ADI: cmsis_dap_run
Debug: 703 2653 target.c:2166 target_write_u32(): address: 0x50000030, value: 0x00000000
Debug: 704 2653 adi_v5_cmsis_dap.c:156 cmsis_dap_queue_ap_write(): CMSIS-ADI: cmsis_dap_queue_ap_write 4 0x50000030
Debug: 705 2653 adi_v5_cmsis_dap.c:99 cmsis_dap_queue_dp_write(): CMSIS-ADI: cmsis_dap_queue_dp_write 8 0x00000000
Debug: 706 2653 adi_v5_cmsis_dap.c:156 cmsis_dap_queue_ap_write(): CMSIS-ADI: cmsis_dap_queue_ap_write 0 0xa2000012
Debug: 707 2653 adi_v5_cmsis_dap.c:156 cmsis_dap_queue_ap_write(): CMSIS-ADI: cmsis_dap_queue_ap_write 12 0x00000000
Debug: 708 2653 adi_v5_cmsis_dap.c:233 cmsis_dap_run(): CMSIS-ADI: cmsis_dap_run
Debug: 709 2653 target.c:2166 target_write_u32(): address: 0x50010000, value: 0xabcd5678
Debug: 710 2653 adi_v5_cmsis_dap.c:156 cmsis_dap_queue_ap_write(): CMSIS-ADI: cmsis_dap_queue_ap_write 4 0x50010000
Debug: 711 2653 adi_v5_cmsis_dap.c:156 cmsis_dap_queue_ap_write(): CMSIS-ADI: cmsis_dap_queue_ap_write 12 0xabcd5678
Debug: 712 2653 adi_v5_cmsis_dap.c:233 cmsis_dap_run(): CMSIS-ADI: cmsis_dap_run
Debug: 713 2653 target.c:2166 target_write_u32(): address: 0x50010000, value: 0x1234fedc
Debug: 714 2653 adi_v5_cmsis_dap.c:156 cmsis_dap_queue_ap_write(): CMSIS-ADI: cmsis_dap_queue_ap_write 4 0x50010000
Debug: 715 2653 adi_v5_cmsis_dap.c:156 cmsis_dap_queue_ap_write(): CMSIS-ADI: cmsis_dap_queue_ap_write 12 0x1234fedc
Debug: 716 2653 adi_v5_cmsis_dap.c:233 cmsis_dap_run(): CMSIS-ADI: cmsis_dap_run
Debug: 717 2653 adi_v5_cmsis_dap.c:156 cmsis_dap_queue_ap_write(): CMSIS-ADI: cmsis_dap_queue_ap_write 4 0x50010008
Debug: 718 2653 adi_v5_cmsis_dap.c:136 cmsis_dap_queue_ap_read(): CMSIS-ADI: cmsis_dap_queue_ap_read 12
Debug: 719 2653 adi_v5_cmsis_dap.c:233 cmsis_dap_run(): CMSIS-ADI: cmsis_dap_run
Debug: 720 2653 target.c:2078 target_read_u32(): address: 0x50010008, value: 0x00000000
Debug: 721 2653 target.c:2166 target_write_u32(): address: 0x50010008, value: 0x00000300
Debug: 722 2653 adi_v5_cmsis_dap.c:156 cmsis_dap_queue_ap_write(): CMSIS-ADI: cmsis_dap_queue_ap_write 4 0x50010008
Debug: 723 2653 adi_v5_cmsis_dap.c:156 cmsis_dap_queue_ap_write(): CMSIS-ADI: cmsis_dap_queue_ap_write 12 0x00000300
Debug: 724 2653 adi_v5_cmsis_dap.c:233 cmsis_dap_run(): CMSIS-ADI: cmsis_dap_run
Debug: 725 2653 target.c:2166 target_write_u32(): address: 0x50010020, value: 0x00010000
Debug: 726 2653 adi_v5_cmsis_dap.c:156 cmsis_dap_queue_ap_write(): CMSIS-ADI: cmsis_dap_queue_ap_write 4 0x50010020
Debug: 727 2653 adi_v5_cmsis_dap.c:156 cmsis_dap_queue_ap_write(): CMSIS-ADI: cmsis_dap_queue_ap_write 12 0x00010000
Debug: 728 2653 adi_v5_cmsis_dap.c:233 cmsis_dap_run(): CMSIS-ADI: cmsis_dap_run
Debug: 729 2704 target.c:2166 target_write_u32(): address: 0x50010008, value: 0x00000000
Debug: 730 2704 adi_v5_cmsis_dap.c:156 cmsis_dap_queue_ap_write(): CMSIS-ADI: cmsis_dap_queue_ap_write 4 0x50010008
Debug: 731 2704 adi_v5_cmsis_dap.c:156 cmsis_dap_queue_ap_write(): CMSIS-ADI: cmsis_dap_queue_ap_write 12 0x00000000
Debug: 732 2704 adi_v5_cmsis_dap.c:233 cmsis_dap_run(): CMSIS-ADI: cmsis_dap_run
Debug: 733 2704 target.c:2166 target_write_u32(): address: 0x50010000, value: 0x00000000
Debug: 734 2704 adi_v5_cmsis_dap.c:156 cmsis_dap_queue_ap_write(): CMSIS-ADI: cmsis_dap_queue_ap_write 4 0x50010000
Debug: 735 2704 adi_v5_cmsis_dap.c:156 cmsis_dap_queue_ap_write(): CMSIS-ADI: cmsis_dap_queue_ap_write 12 0x00000000
Debug: 736 2704 adi_v5_cmsis_dap.c:233 cmsis_dap_run(): CMSIS-ADI: cmsis_dap_run
User : 737 2704 command.c:546 command_print(): flash 'gpcm1f' do mass erase
Debug: 738 2704 adi_v5_cmsis_dap.c:156 cmsis_dap_queue_ap_write(): CMSIS-ADI: cmsis_dap_queue_ap_write 0 0xa2000002
Debug: 739 2704 adi_v5_cmsis_dap.c:156 cmsis_dap_queue_ap_write(): CMSIS-ADI: cmsis_dap_queue_ap_write 4 0xe000edf0
Debug: 740 2704 adi_v5_cmsis_dap.c:136 cmsis_dap_queue_ap_read(): CMSIS-ADI: cmsis_dap_queue_ap_read 16
Debug: 741 2704 adi_v5_cmsis_dap.c:99 cmsis_dap_queue_dp_write(): CMSIS-ADI: cmsis_dap_queue_dp_write 8 0x00000010
Debug: 742 2704 adi_v5_cmsis_dap.c:233 cmsis_dap_run(): CMSIS-ADI: cmsis_dap_run
Debug: 743 2704 gdb_server.c:2836 gdb_input_inner(): received packet: 'qRcmd,636d7369732d646170206172705f696e6974'
Debug: 744 2704 adi_v5_cmsis_dap.c:136 cmsis_dap_queue_ap_read(): CMSIS-ADI: cmsis_dap_queue_ap_read 16
Debug: 745 2704 adi_v5_cmsis_dap.c:233 cmsis_dap_run(): CMSIS-ADI: cmsis_dap_run
Debug: 746 2704 command.c:145 script_debug(): command - ocd_command ocd_command type ocd_cmsis-dap arp_init
Debug: 747 2704 command.c:145 script_debug(): command - ocd_cmsis-dap ocd_cmsis-dap arp_init
Debug: 748 2704 adi_v5_cmsis_dap.c:136 cmsis_dap_queue_ap_read(): CMSIS-ADI: cmsis_dap_queue_ap_read 16
Debug: 749 2704 adi_v5_cmsis_dap.c:233 cmsis_dap_run(): CMSIS-ADI: cmsis_dap_run
Debug: 751 2704 cmsis_dap_usb.c:450 cmsis_dap_cmd_DAP_SWJ_Pins(): cmsis_dap_cmd_DAP_SWJ_Pins: pins 0x0, mask 0x80
Debug: 752 2735 cmsis_dap_usb.c:1206 cmsis_dap_reset_link(): CMSIS-DAP: cmsis_dap_reset_link
Info : 753 2735 cmsis_dap_usb.c:1207 cmsis_dap_reset_link(): DAP_SWJ Sequence (reset: 50+ '1' followed by 0)
Debug: 754 2735 cmsis_dap_usb.c:1299 cmsis_dap_reset_link(): DAP Write Abort
Debug: 755 2735 cmsis_dap_usb.c:1308 cmsis_dap_reset_link(): Result 0x00
Debug: 756 2735 adi_v5_cmsis_dap.c:136 cmsis_dap_queue_ap_read(): CMSIS-ADI: cmsis_dap_queue_ap_read 16
Debug: 757 2735 adi_v5_cmsis_dap.c:233 cmsis_dap_run(): CMSIS-ADI: cmsis_dap_run
Debug: 758 2735 gdb_server.c:2836 gdb_input_inner(): received packet: 'qRcmd,72657365742068616c74'
Debug: 759 2735 adi_v5_cmsis_dap.c:136 cmsis_dap_queue_ap_read(): CMSIS-ADI: cmsis_dap_queue_ap_read 16
Debug: 760 2735 adi_v5_cmsis_dap.c:233 cmsis_dap_run(): CMSIS-ADI: cmsis_dap_run
Debug: 761 2735 command.c:145 script_debug(): command - ocd_command ocd_command type ocd_reset halt
Debug: 762 2735 command.c:145 script_debug(): command - reset ocd_reset halt
Debug: 763 2735 adi_v5_cmsis_dap.c:136 cmsis_dap_queue_ap_read(): CMSIS-ADI: cmsis_dap_queue_ap_read 16
Debug: 764 2735 adi_v5_cmsis_dap.c:233 cmsis_dap_run(): CMSIS-ADI: cmsis_dap_run
Debug: 766 2735 command.c:145 script_debug(): command - ocd_command ocd_command type ocd_target names
Debug: 767 2735 command.c:145 script_debug(): command - ocd_target ocd_target names
Debug: 768 2735 command.c:145 script_debug(): command - ocd_command ocd_command type ocd_GBQ868.cpu invoke-event reset-start
Debug: 769 2735 command.c:145 script_debug(): command - ocd_GBQ868.cpu ocd_GBQ868.cpu invoke-event reset-start
Debug: 770 2735 command.c:145 script_debug(): command - ocd_command ocd_command type ocd_jtag arp_init-reset
Debug: 771 2735 command.c:145 script_debug(): command - ocd_jtag ocd_jtag arp_init-reset
Debug: 773 2735 cmsis_dap_usb.c:1729 cmsis_dap_reset_command(): cmsis_dap_reset_command
Debug: 774 2735 command.c:145 script_debug(): command - ocd_command ocd_command type ocd_GBQ868.cpu cget -chain-position
Debug: 775 2735 command.c:145 script_debug(): command - ocd_GBQ868.cpu ocd_GBQ868.cpu cget -chain-position
Debug: 776 2735 command.c:145 script_debug(): command - ocd_command ocd_command type ocd_jtag tapisenabled GBQ868.cpu
Debug: 777 2735 command.c:145 script_debug(): command - ocd_jtag ocd_jtag tapisenabled GBQ868.cpu
Debug: 778 2735 command.c:145 script_debug(): command - ocd_command ocd_command type ocd_GBQ868.cpu invoke-event examine-start
Debug: 779 2735 command.c:145 script_debug(): command - ocd_GBQ868.cpu ocd_GBQ868.cpu invoke-event examine-start
Debug: 780 2735 target.c:4436 target_handle_event(): target: (0) GBQ868.cpu (cortex_m) event: 21 (examine-start) action:  
 poll off

Debug: 781 2735 command.c:145 script_debug(): command - ocd_command ocd_command type ocd_poll off
Debug: 782 2735 command.c:145 script_debug(): command - poll ocd_poll off
Debug: 784 2735 command.c:145 script_debug(): command - ocd_command ocd_command type ocd_GBQ868.cpu arp_examine
Debug: 785 2735 command.c:145 script_debug(): command - ocd_GBQ868.cpu ocd_GBQ868.cpu arp_examine
Debug: 786 2735 arm_adi_v5.c:876 ahbap_debugport_init():  
Debug: 787 2735 adi_v5_cmsis_dap.c:70 cmsis_dap_queue_dp_read(): CMSIS-ADI: cmsis_dap_queue_dp_read 4
Debug: 788 2735 adi_v5_cmsis_dap.c:99 cmsis_dap_queue_dp_write(): CMSIS-ADI: cmsis_dap_queue_dp_write 4 0x50000000
Debug: 789 2735 adi_v5_cmsis_dap.c:104 cmsis_dap_queue_dp_write(): disabling overrun detection
Debug: 790 2751 adi_v5_cmsis_dap.c:70 cmsis_dap_queue_dp_read(): CMSIS-ADI: cmsis_dap_queue_dp_read 4
Debug: 791 2751 adi_v5_cmsis_dap.c:233 cmsis_dap_run(): CMSIS-ADI: cmsis_dap_run
Debug: 792 2751 adi_v5_cmsis_dap.c:70 cmsis_dap_queue_dp_read(): CMSIS-ADI: cmsis_dap_queue_dp_read 4
Debug: 793 2751 adi_v5_cmsis_dap.c:99 cmsis_dap_queue_dp_write(): CMSIS-ADI: cmsis_dap_queue_dp_write 4 0x50000001
Debug: 794 2751 adi_v5_cmsis_dap.c:104 cmsis_dap_queue_dp_write(): disabling overrun detection
Debug: 795 2751 adi_v5_cmsis_dap.c:70 cmsis_dap_queue_dp_read(): CMSIS-ADI: cmsis_dap_queue_dp_read 4
Debug: 796 2751 adi_v5_cmsis_dap.c:156 cmsis_dap_queue_ap_write(): CMSIS-ADI: cmsis_dap_queue_ap_write 0 0xa2000020
Debug: 797 2751 adi_v5_cmsis_dap.c:99 cmsis_dap_queue_dp_write(): CMSIS-ADI: cmsis_dap_queue_dp_write 8 0x00000000
Debug: 798 2751 adi_v5_cmsis_dap.c:156 cmsis_dap_queue_ap_write(): CMSIS-ADI: cmsis_dap_queue_ap_write 4 0x00000000
Debug: 799 2751 adi_v5_cmsis_dap.c:136 cmsis_dap_queue_ap_read(): CMSIS-ADI: cmsis_dap_queue_ap_read 0
Debug: 800 2751 adi_v5_cmsis_dap.c:136 cmsis_dap_queue_ap_read(): CMSIS-ADI: cmsis_dap_queue_ap_read 244
Debug: 801 2751 adi_v5_cmsis_dap.c:99 cmsis_dap_queue_dp_write(): CMSIS-ADI: cmsis_dap_queue_dp_write 8 0x000000f0
Debug: 802 2751 adi_v5_cmsis_dap.c:233 cmsis_dap_run(): CMSIS-ADI: cmsis_dap_run
Debug: 803 2751 arm_adi_v5.c:990 ahbap_debugport_init(): MEM_AP Packed Transfers: disabled
Debug: 804 2751 arm_adi_v5.c:1001 ahbap_debugport_init(): MEM_AP CFG: large data 0, long address 0, big-endian 0
Debug: 805 2751 command.c:145 script_debug(): command - ocd_command ocd_command type ocd_GBQ868.cpu invoke-event examine-end
Debug: 806 2751 command.c:145 script_debug(): command - ocd_GBQ868.cpu ocd_GBQ868.cpu invoke-event examine-end
Debug: 807 2751 target.c:4436 target_handle_event(): target: (0) GBQ868.cpu (cortex_m) event: 22 (examine-end) action:  
 poll on
 halt
 #poll on

Debug: 808 2751 command.c:145 script_debug(): command - ocd_command ocd_command type ocd_poll on
Debug: 809 2751 command.c:145 script_debug(): command - poll ocd_poll on
Debug: 811 2751 command.c:145 script_debug(): command - ocd_command ocd_command type ocd_halt
Debug: 812 2751 command.c:145 script_debug(): command - halt ocd_halt
Debug: 813 2751 adi_v5_cmsis_dap.c:156 cmsis_dap_queue_ap_write(): CMSIS-ADI: cmsis_dap_queue_ap_write 0 0xa2000002
Debug: 814 2751 adi_v5_cmsis_dap.c:99 cmsis_dap_queue_dp_write(): CMSIS-ADI: cmsis_dap_queue_dp_write 8 0x00000000
Debug: 815 2751 adi_v5_cmsis_dap.c:156 cmsis_dap_queue_ap_write(): CMSIS-ADI: cmsis_dap_queue_ap_write 4 0xe000edf0
Debug: 816 2751 adi_v5_cmsis_dap.c:136 cmsis_dap_queue_ap_read(): CMSIS-ADI: cmsis_dap_queue_ap_read 16
Debug: 817 2751 adi_v5_cmsis_dap.c:99 cmsis_dap_queue_dp_write(): CMSIS-ADI: cmsis_dap_queue_dp_write 8 0x00000010
Debug: 818 2751 adi_v5_cmsis_dap.c:233 cmsis_dap_run(): CMSIS-ADI: cmsis_dap_run
Debug: 819 2751 adi_v5_cmsis_dap.c:136 cmsis_dap_queue_ap_read(): CMSIS-ADI: cmsis_dap_queue_ap_read 16
Debug: 820 2751 adi_v5_cmsis_dap.c:233 cmsis_dap_run(): CMSIS-ADI: cmsis_dap_run
Debug: 822 2751 target.c:2667 handle_halt_command(): -
Debug: 823 2751 cortex_m.c:653 cortex_m_halt(): target->state: halted
Debug: 824 2751 cortex_m.c:656 cortex_m_halt(): target was already halted
Debug: 825 2751 adi_v5_cmsis_dap.c:136 cmsis_dap_queue_ap_read(): CMSIS-ADI: cmsis_dap_queue_ap_read 16
Debug: 826 2751 adi_v5_cmsis_dap.c:233 cmsis_dap_run(): CMSIS-ADI: cmsis_dap_run
Debug: 827 2751 command.c:145 script_debug(): command - ocd_command ocd_command type ocd_GBQ868.cpu invoke-event reset-assert-pre
Debug: 828 2751 command.c:145 script_debug(): command - ocd_GBQ868.cpu ocd_GBQ868.cpu invoke-event reset-assert-pre
Debug: 829 2751 command.c:145 script_debug(): command - ocd_command ocd_command type ocd_GBQ868.cpu cget -chain-position
Debug: 830 2751 command.c:145 script_debug(): command - ocd_GBQ868.cpu ocd_GBQ868.cpu cget -chain-position
Debug: 831 2751 command.c:145 script_debug(): command - ocd_command ocd_command type ocd_jtag tapisenabled GBQ868.cpu
Debug: 832 2751 command.c:145 script_debug(): command - ocd_jtag ocd_jtag tapisenabled GBQ868.cpu
Debug: 833 2751 command.c:145 script_debug(): command - ocd_command ocd_command type ocd_GBQ868.cpu arp_reset assert 1
Debug: 834 2751 command.c:145 script_debug(): command - ocd_GBQ868.cpu ocd_GBQ868.cpu arp_reset assert 1
Debug: 835 2751 target.c:1736 target_free_all_working_areas_restore(): freeing all working areas
Debug: 836 2751 target.c:1502 print_wa_layout():    0x20000100-0x200010ff (4096 bytes)
Debug: 837 2751 cortex_m.c:1036 cortex_m_assert_reset(): target->state: halted
Debug: 838 2751 adi_v5_cmsis_dap.c:136 cmsis_dap_queue_ap_read(): CMSIS-ADI: cmsis_dap_queue_ap_read 16
Debug: 839 2751 adi_v5_cmsis_dap.c:233 cmsis_dap_run(): CMSIS-ADI: cmsis_dap_run
Debug: 840 2751 adi_v5_cmsis_dap.c:156 cmsis_dap_queue_ap_write(): CMSIS-ADI: cmsis_dap_queue_ap_write 16 0xa05f0001
Debug: 841 2751 adi_v5_cmsis_dap.c:156 cmsis_dap_queue_ap_write(): CMSIS-ADI: cmsis_dap_queue_ap_write 24 0x00000000
Debug: 842 2766 adi_v5_cmsis_dap.c:156 cmsis_dap_queue_ap_write(): CMSIS-ADI: cmsis_dap_queue_ap_write 28 0x01000501
Debug: 843 2766 adi_v5_cmsis_dap.c:233 cmsis_dap_run(): CMSIS-ADI: cmsis_dap_run
Debug: 844 2766 adi_v5_cmsis_dap.c:156 cmsis_dap_queue_ap_write(): CMSIS-ADI: cmsis_dap_queue_ap_write 4 0xe000ed00
Debug: 845 2766 adi_v5_cmsis_dap.c:99 cmsis_dap_queue_dp_write(): CMSIS-ADI: cmsis_dap_queue_dp_write 8 0x00000000
Debug: 846 2766 adi_v5_cmsis_dap.c:156 cmsis_dap_queue_ap_write(): CMSIS-ADI: cmsis_dap_queue_ap_write 28 0x05fa0004
Debug: 847 2766 adi_v5_cmsis_dap.c:99 cmsis_dap_queue_dp_write(): CMSIS-ADI: cmsis_dap_queue_dp_write 8 0x00000010
Debug: 848 2766 adi_v5_cmsis_dap.c:233 cmsis_dap_run(): CMSIS-ADI: cmsis_dap_run
Debug: 849 2766 cortex_m.c:1128 cortex_m_assert_reset(): Using Cortex-M SYSRESETREQ
Debug: 850 2766 adi_v5_cmsis_dap.c:136 cmsis_dap_queue_ap_read(): CMSIS-ADI: cmsis_dap_queue_ap_read 28
Debug: 851 2766 adi_v5_cmsis_dap.c:233 cmsis_dap_run(): CMSIS-ADI: cmsis_dap_run
Debug: 852 2766 cortex_m.c:653 cortex_m_halt(): target->state: reset
Debug: 853 2766 command.c:145 script_debug(): command - ocd_command ocd_command type ocd_GBQ868.cpu invoke-event reset-assert-post
Debug: 854 2766 command.c:145 script_debug(): command - ocd_GBQ868.cpu ocd_GBQ868.cpu invoke-event reset-assert-post
Debug: 855 2766 command.c:145 script_debug(): command - ocd_command ocd_command type ocd_GBQ868.cpu invoke-event reset-deassert-pre
Debug: 856 2766 command.c:145 script_debug(): command - ocd_GBQ868.cpu ocd_GBQ868.cpu invoke-event reset-deassert-pre
Debug: 857 2766 command.c:145 script_debug(): command - ocd_command ocd_command type ocd_GBQ868.cpu cget -chain-position
Debug: 858 2766 command.c:145 script_debug(): command - ocd_GBQ868.cpu ocd_GBQ868.cpu cget -chain-position
Debug: 859 2766 command.c:145 script_debug(): command - ocd_command ocd_command type ocd_jtag tapisenabled GBQ868.cpu
Debug: 860 2766 command.c:145 script_debug(): command - ocd_jtag ocd_jtag tapisenabled GBQ868.cpu
Debug: 861 2766 command.c:145 script_debug(): command - ocd_command ocd_command type ocd_GBQ868.cpu arp_reset deassert 1
Debug: 862 2766 command.c:145 script_debug(): command - ocd_GBQ868.cpu ocd_GBQ868.cpu arp_reset deassert 1
Debug: 863 2766 target.c:1736 target_free_all_working_areas_restore(): freeing all working areas
Debug: 864 2766 target.c:1502 print_wa_layout():    0x20000100-0x200010ff (4096 bytes)
Debug: 865 2766 cortex_m.c:1164 cortex_m_deassert_reset(): target->state: reset
Debug: 866 2766 command.c:145 script_debug(): command - ocd_command ocd_command type ocd_GBQ868.cpu invoke-event reset-deassert-post
Debug: 867 2766 command.c:145 script_debug(): command - ocd_GBQ868.cpu ocd_GBQ868.cpu invoke-event reset-deassert-post
Debug: 868 2766 command.c:145 script_debug(): command - ocd_command ocd_command type ocd_GBQ868.cpu cget -chain-position
Debug: 869 2766 command.c:145 script_debug(): command - ocd_GBQ868.cpu ocd_GBQ868.cpu cget -chain-position
Debug: 870 2766 command.c:145 script_debug(): command - ocd_command ocd_command type ocd_jtag tapisenabled GBQ868.cpu
Debug: 871 2766 command.c:145 script_debug(): command - ocd_jtag ocd_jtag tapisenabled GBQ868.cpu
Debug: 872 2766 command.c:145 script_debug(): command - ocd_command ocd_command type ocd_GBQ868.cpu arp_waitstate halted 1000
Debug: 873 2766 command.c:145 script_debug(): command - ocd_GBQ868.cpu ocd_GBQ868.cpu arp_waitstate halted 1000
Debug: 874 2766 adi_v5_cmsis_dap.c:156 cmsis_dap_queue_ap_write(): CMSIS-ADI: cmsis_dap_queue_ap_write 4 0xe000edf0
Debug: 875 2766 adi_v5_cmsis_dap.c:99 cmsis_dap_queue_dp_write(): CMSIS-ADI: cmsis_dap_queue_dp_write 8 0x00000000
Debug: 876 2766 adi_v5_cmsis_dap.c:136 cmsis_dap_queue_ap_read(): CMSIS-ADI: cmsis_dap_queue_ap_read 16
Debug: 877 2766 adi_v5_cmsis_dap.c:99 cmsis_dap_queue_dp_write(): CMSIS-ADI: cmsis_dap_queue_dp_write 8 0x00000010
Debug: 878 2766 adi_v5_cmsis_dap.c:233 cmsis_dap_run(): CMSIS-ADI: cmsis_dap_run
Debug: 879 2766 adi_v5_cmsis_dap.c:136 cmsis_dap_queue_ap_read(): CMSIS-ADI: cmsis_dap_queue_ap_read 16
Debug: 880 2766 adi_v5_cmsis_dap.c:233 cmsis_dap_run(): CMSIS-ADI: cmsis_dap_run
Debug: 881 2766 cortex_m.c:599 cortex_m_poll(): Exit from reset with dcb_dhcsr 0x30003
Debug: 882 2766 adi_v5_cmsis_dap.c:136 cmsis_dap_queue_ap_read(): CMSIS-ADI: cmsis_dap_queue_ap_read 28
Debug: 883 2766 adi_v5_cmsis_dap.c:233 cmsis_dap_run(): CMSIS-ADI: cmsis_dap_run
Debug: 884 2766 cortex_m.c:274 cortex_m_endreset_event(): DCB_DEMCR = 0x01000401
Debug: 885 2766 adi_v5_cmsis_dap.c:156 cmsis_dap_queue_ap_write(): CMSIS-ADI: cmsis_dap_queue_ap_write 24 0x00000000
Debug: 886 2766 adi_v5_cmsis_dap.c:136 cmsis_dap_queue_ap_read(): CMSIS-ADI: cmsis_dap_queue_ap_read 16
Debug: 887 2766 adi_v5_cmsis_dap.c:233 cmsis_dap_run(): CMSIS-ADI: cmsis_dap_run
Debug: 888 2766 adi_v5_cmsis_dap.c:156 cmsis_dap_queue_ap_write(): CMSIS-ADI: cmsis_dap_queue_ap_write 16 0xa05f0003
Debug: 889 2766 adi_v5_cmsis_dap.c:233 cmsis_dap_run(): CMSIS-ADI: cmsis_dap_run
Debug: 890 2766 adi_v5_cmsis_dap.c:156 cmsis_dap_queue_ap_write(): CMSIS-ADI: cmsis_dap_queue_ap_write 28 0x01000000
Debug: 891 2766 target.c:2166 target_write_u32(): address: 0xe0002000, value: 0x00000003
Debug: 892 2766 adi_v5_cmsis_dap.c:156 cmsis_dap_queue_ap_write(): CMSIS-ADI: cmsis_dap_queue_ap_write 4 0xe0002000
Debug: 893 2766 adi_v5_cmsis_dap.c:99 cmsis_dap_queue_dp_write(): CMSIS-ADI: cmsis_dap_queue_dp_write 8 0x00000000
Debug: 894 2766 adi_v5_cmsis_dap.c:156 cmsis_dap_queue_ap_write(): CMSIS-ADI: cmsis_dap_queue_ap_write 0 0xa2000012
Debug: 895 2766 adi_v5_cmsis_dap.c:156 cmsis_dap_queue_ap_write(): CMSIS-ADI: cmsis_dap_queue_ap_write 12 0x00000003
Debug: 896 2782 adi_v5_cmsis_dap.c:233 cmsis_dap_run(): CMSIS-ADI: cmsis_dap_run
Debug: 897 2782 adi_v5_cmsis_dap.c:156 cmsis_dap_queue_ap_write(): CMSIS-ADI: cmsis_dap_queue_ap_write 4 0xe0002000
Debug: 898 2782 adi_v5_cmsis_dap.c:136 cmsis_dap_queue_ap_read(): CMSIS-ADI: cmsis_dap_queue_ap_read 12
Debug: 899 2782 adi_v5_cmsis_dap.c:233 cmsis_dap_run(): CMSIS-ADI: cmsis_dap_run
Debug: 900 2782 target.c:2078 target_read_u32(): address: 0xe0002000, value: 0x00000041
Debug: 901 2782 target.c:2166 target_write_u32(): address: 0xe0002008, value: 0x00000000
Debug: 902 2782 adi_v5_cmsis_dap.c:156 cmsis_dap_queue_ap_write(): CMSIS-ADI: cmsis_dap_queue_ap_write 4 0xe0002008
Debug: 903 2782 adi_v5_cmsis_dap.c:156 cmsis_dap_queue_ap_write(): CMSIS-ADI: cmsis_dap_queue_ap_write 12 0x00000000
Debug: 904 2782 adi_v5_cmsis_dap.c:233 cmsis_dap_run(): CMSIS-ADI: cmsis_dap_run
Debug: 905 2782 target.c:2166 target_write_u32(): address: 0xe000200c, value: 0x00000000
Debug: 906 2782 adi_v5_cmsis_dap.c:156 cmsis_dap_queue_ap_write(): CMSIS-ADI: cmsis_dap_queue_ap_write 4 0xe000200c
Debug: 907 2782 adi_v5_cmsis_dap.c:156 cmsis_dap_queue_ap_write(): CMSIS-ADI: cmsis_dap_queue_ap_write 12 0x00000000
Debug: 908 2782 adi_v5_cmsis_dap.c:233 cmsis_dap_run(): CMSIS-ADI: cmsis_dap_run
Debug: 909 2782 target.c:2166 target_write_u32(): address: 0xe0002010, value: 0x00000000
Debug: 910 2782 adi_v5_cmsis_dap.c:156 cmsis_dap_queue_ap_write(): CMSIS-ADI: cmsis_dap_queue_ap_write 4 0xe0002010
Debug: 911 2782 adi_v5_cmsis_dap.c:156 cmsis_dap_queue_ap_write(): CMSIS-ADI: cmsis_dap_queue_ap_write 12 0x00000000
Debug: 912 2789 adi_v5_cmsis_dap.c:233 cmsis_dap_run(): CMSIS-ADI: cmsis_dap_run
Debug: 913 2789 target.c:2166 target_write_u32(): address: 0xe0002014, value: 0x00000000
Debug: 914 2789 adi_v5_cmsis_dap.c:156 cmsis_dap_queue_ap_write(): CMSIS-ADI: cmsis_dap_queue_ap_write 4 0xe0002014
Debug: 915 2789 adi_v5_cmsis_dap.c:156 cmsis_dap_queue_ap_write(): CMSIS-ADI: cmsis_dap_queue_ap_write 12 0x00000000
Debug: 916 2789 adi_v5_cmsis_dap.c:233 cmsis_dap_run(): CMSIS-ADI: cmsis_dap_run
Debug: 917 2789 target.c:2166 target_write_u32(): address: 0xe0001020, value: 0x00000000
Debug: 918 2789 adi_v5_cmsis_dap.c:156 cmsis_dap_queue_ap_write(): CMSIS-ADI: cmsis_dap_queue_ap_write 4 0xe0001020
Debug: 919 2789 adi_v5_cmsis_dap.c:156 cmsis_dap_queue_ap_write(): CMSIS-ADI: cmsis_dap_queue_ap_write 12 0x00000000
Debug: 920 2789 adi_v5_cmsis_dap.c:233 cmsis_dap_run(): CMSIS-ADI: cmsis_dap_run
Debug: 921 2789 target.c:2166 target_write_u32(): address: 0xe0001024, value: 0x00000000
Debug: 922 2789 adi_v5_cmsis_dap.c:156 cmsis_dap_queue_ap_write(): CMSIS-ADI: cmsis_dap_queue_ap_write 4 0xe0001024
Debug: 923 2789 adi_v5_cmsis_dap.c:156 cmsis_dap_queue_ap_write(): CMSIS-ADI: cmsis_dap_queue_ap_write 12 0x00000000
Debug: 924 2789 adi_v5_cmsis_dap.c:233 cmsis_dap_run(): CMSIS-ADI: cmsis_dap_run
Debug: 925 2789 target.c:2166 target_write_u32(): address: 0xe0001028, value: 0x00000000
Debug: 926 2789 adi_v5_cmsis_dap.c:156 cmsis_dap_queue_ap_write(): CMSIS-ADI: cmsis_dap_queue_ap_write 4 0xe0001028
Debug: 927 2789 adi_v5_cmsis_dap.c:156 cmsis_dap_queue_ap_write(): CMSIS-ADI: cmsis_dap_queue_ap_write 12 0x00000000
Debug: 928 2789 adi_v5_cmsis_dap.c:233 cmsis_dap_run(): CMSIS-ADI: cmsis_dap_run
Debug: 929 2789 target.c:2166 target_write_u32(): address: 0xe0001030, value: 0x00000000
Debug: 930 2789 adi_v5_cmsis_dap.c:156 cmsis_dap_queue_ap_write(): CMSIS-ADI: cmsis_dap_queue_ap_write 4 0xe0001030
Debug: 931 2789 adi_v5_cmsis_dap.c:156 cmsis_dap_queue_ap_write(): CMSIS-ADI: cmsis_dap_queue_ap_write 12 0x00000000
Debug: 932 2789 adi_v5_cmsis_dap.c:233 cmsis_dap_run(): CMSIS-ADI: cmsis_dap_run
Debug: 933 2789 target.c:2166 target_write_u32(): address: 0xe0001034, value: 0x00000000
Debug: 934 2789 adi_v5_cmsis_dap.c:156 cmsis_dap_queue_ap_write(): CMSIS-ADI: cmsis_dap_queue_ap_write 4 0xe0001034
Debug: 935 2789 adi_v5_cmsis_dap.c:156 cmsis_dap_queue_ap_write(): CMSIS-ADI: cmsis_dap_queue_ap_write 12 0x00000000
Debug: 936 2789 adi_v5_cmsis_dap.c:233 cmsis_dap_run(): CMSIS-ADI: cmsis_dap_run
Debug: 937 2789 target.c:2166 target_write_u32(): address: 0xe0001038, value: 0x00000000
Debug: 938 2789 adi_v5_cmsis_dap.c:156 cmsis_dap_queue_ap_write(): CMSIS-ADI: cmsis_dap_queue_ap_write 4 0xe0001038
Debug: 939 2789 adi_v5_cmsis_dap.c:156 cmsis_dap_queue_ap_write(): CMSIS-ADI: cmsis_dap_queue_ap_write 12 0x00000000
Debug: 940 2789 adi_v5_cmsis_dap.c:233 cmsis_dap_run(): CMSIS-ADI: cmsis_dap_run
Debug: 941 2789 adi_v5_cmsis_dap.c:233 cmsis_dap_run(): CMSIS-ADI: cmsis_dap_run
Debug: 942 2789 adi_v5_cmsis_dap.c:156 cmsis_dap_queue_ap_write(): CMSIS-ADI: cmsis_dap_queue_ap_write 0 0xa2000002
Debug: 943 2789 adi_v5_cmsis_dap.c:156 cmsis_dap_queue_ap_write(): CMSIS-ADI: cmsis_dap_queue_ap_write 4 0xe000edf0
Debug: 944 2789 adi_v5_cmsis_dap.c:136 cmsis_dap_queue_ap_read(): CMSIS-ADI: cmsis_dap_queue_ap_read 16
Debug: 945 2789 adi_v5_cmsis_dap.c:99 cmsis_dap_queue_dp_write(): CMSIS-ADI: cmsis_dap_queue_dp_write 8 0x00000010
Debug: 946 2789 adi_v5_cmsis_dap.c:233 cmsis_dap_run(): CMSIS-ADI: cmsis_dap_run
Debug: 947 2789 cortex_m.c:455 cortex_m_debug_entry():  
Debug: 948 2789 adi_v5_cmsis_dap.c:156 cmsis_dap_queue_ap_write(): CMSIS-ADI: cmsis_dap_queue_ap_write 16 0xa05f0003
Debug: 949 2789 adi_v5_cmsis_dap.c:233 cmsis_dap_run(): CMSIS-ADI: cmsis_dap_run
Debug: 950 2789 adi_v5_cmsis_dap.c:156 cmsis_dap_queue_ap_write(): CMSIS-ADI: cmsis_dap_queue_ap_write 4 0xe000ed30
Debug: 951 2789 adi_v5_cmsis_dap.c:99 cmsis_dap_queue_dp_write(): CMSIS-ADI: cmsis_dap_queue_dp_write 8 0x00000000
Debug: 952 2804 adi_v5_cmsis_dap.c:136 cmsis_dap_queue_ap_read(): CMSIS-ADI: cmsis_dap_queue_ap_read 16
Debug: 953 2804 adi_v5_cmsis_dap.c:99 cmsis_dap_queue_dp_write(): CMSIS-ADI: cmsis_dap_queue_dp_write 8 0x00000010
Debug: 954 2804 adi_v5_cmsis_dap.c:233 cmsis_dap_run(): CMSIS-ADI: cmsis_dap_run
Debug: 955 2804 adi_v5_cmsis_dap.c:156 cmsis_dap_queue_ap_write(): CMSIS-ADI: cmsis_dap_queue_ap_write 16 0x00000009
Debug: 956 2804 adi_v5_cmsis_dap.c:233 cmsis_dap_run(): CMSIS-ADI: cmsis_dap_run
Debug: 957 2804 cortex_m.c:203 cortex_m_clear_halt():  NVIC_DFSR 0x9
Debug: 958 2804 adi_v5_cmsis_dap.c:156 cmsis_dap_queue_ap_write(): CMSIS-ADI: cmsis_dap_queue_ap_write 4 0xe000edf0
Debug: 959 2804 adi_v5_cmsis_dap.c:99 cmsis_dap_queue_dp_write(): CMSIS-ADI: cmsis_dap_queue_dp_write 8 0x00000000
Debug: 960 2804 adi_v5_cmsis_dap.c:136 cmsis_dap_queue_ap_read(): CMSIS-ADI: cmsis_dap_queue_ap_read 16
Debug: 961 2804 adi_v5_cmsis_dap.c:99 cmsis_dap_queue_dp_write(): CMSIS-ADI: cmsis_dap_queue_dp_write 8 0x00000010
Debug: 962 2804 adi_v5_cmsis_dap.c:233 cmsis_dap_run(): CMSIS-ADI: cmsis_dap_run
Debug: 963 2804 adi_v5_cmsis_dap.c:156 cmsis_dap_queue_ap_write(): CMSIS-ADI: cmsis_dap_queue_ap_write 20 0x00000000
Debug: 964 2804 adi_v5_cmsis_dap.c:136 cmsis_dap_queue_ap_read(): CMSIS-ADI: cmsis_dap_queue_ap_read 24
Debug: 965 2804 adi_v5_cmsis_dap.c:233 cmsis_dap_run(): CMSIS-ADI: cmsis_dap_run
Debug: 966 2804 cortex_m.c:1568 cortex_m_load_core_reg_u32(): load from core reg 0  value 0xffffffff
Debug: 967 2804 adi_v5_cmsis_dap.c:156 cmsis_dap_queue_ap_write(): CMSIS-ADI: cmsis_dap_queue_ap_write 20 0x00000001
Debug: 968 2804 adi_v5_cmsis_dap.c:136 cmsis_dap_queue_ap_read(): CMSIS-ADI: cmsis_dap_queue_ap_read 24
Debug: 969 2804 adi_v5_cmsis_dap.c:233 cmsis_dap_run(): CMSIS-ADI: cmsis_dap_run
Debug: 970 2804 cortex_m.c:1568 cortex_m_load_core_reg_u32(): load from core reg 1  value 0xffffffff
Debug: 971 2804 adi_v5_cmsis_dap.c:156 cmsis_dap_queue_ap_write(): CMSIS-ADI: cmsis_dap_queue_ap_write 20 0x00000002
Debug: 972 2804 adi_v5_cmsis_dap.c:136 cmsis_dap_queue_ap_read(): CMSIS-ADI: cmsis_dap_queue_ap_read 24
Debug: 973 2804 adi_v5_cmsis_dap.c:233 cmsis_dap_run(): CMSIS-ADI: cmsis_dap_run
Debug: 974 2804 cortex_m.c:1568 cortex_m_load_core_reg_u32(): load from core reg 2  value 0xffffffff
Debug: 975 2804 adi_v5_cmsis_dap.c:156 cmsis_dap_queue_ap_write(): CMSIS-ADI: cmsis_dap_queue_ap_write 20 0x00000003
Debug: 976 2804 adi_v5_cmsis_dap.c:136 cmsis_dap_queue_ap_read(): CMSIS-ADI: cmsis_dap_queue_ap_read 24
Debug: 977 2804 adi_v5_cmsis_dap.c:233 cmsis_dap_run(): CMSIS-ADI: cmsis_dap_run
Debug: 978 2804 cortex_m.c:1568 cortex_m_load_core_reg_u32(): load from core reg 3  value 0xffffffff
Debug: 979 2804 adi_v5_cmsis_dap.c:156 cmsis_dap_queue_ap_write(): CMSIS-ADI: cmsis_dap_queue_ap_write 20 0x00000004
Debug: 980 2804 adi_v5_cmsis_dap.c:136 cmsis_dap_queue_ap_read(): CMSIS-ADI: cmsis_dap_queue_ap_read 24
Debug: 981 2804 adi_v5_cmsis_dap.c:233 cmsis_dap_run(): CMSIS-ADI: cmsis_dap_run
Debug: 982 2804 cortex_m.c:1568 cortex_m_load_core_reg_u32(): load from core reg 4  value 0xffffffff
Debug: 983 2804 adi_v5_cmsis_dap.c:156 cmsis_dap_queue_ap_write(): CMSIS-ADI: cmsis_dap_queue_ap_write 20 0x00000005
Debug: 984 2820 adi_v5_cmsis_dap.c:136 cmsis_dap_queue_ap_read(): CMSIS-ADI: cmsis_dap_queue_ap_read 24
Debug: 985 2820 adi_v5_cmsis_dap.c:233 cmsis_dap_run(): CMSIS-ADI: cmsis_dap_run
Debug: 986 2820 cortex_m.c:1568 cortex_m_load_core_reg_u32(): load from core reg 5  value 0xffffffff
Debug: 987 2820 adi_v5_cmsis_dap.c:156 cmsis_dap_queue_ap_write(): CMSIS-ADI: cmsis_dap_queue_ap_write 20 0x00000006
Debug: 988 2820 adi_v5_cmsis_dap.c:136 cmsis_dap_queue_ap_read(): CMSIS-ADI: cmsis_dap_queue_ap_read 24
Debug: 989 2820 adi_v5_cmsis_dap.c:233 cmsis_dap_run(): CMSIS-ADI: cmsis_dap_run
Debug: 990 2820 cortex_m.c:1568 cortex_m_load_core_reg_u32(): load from core reg 6  value 0xffffffff
Debug: 991 2820 adi_v5_cmsis_dap.c:156 cmsis_dap_queue_ap_write(): CMSIS-ADI: cmsis_dap_queue_ap_write 20 0x00000007
Debug: 992 2820 adi_v5_cmsis_dap.c:136 cmsis_dap_queue_ap_read(): CMSIS-ADI: cmsis_dap_queue_ap_read 24
Debug: 993 2820 adi_v5_cmsis_dap.c:233 cmsis_dap_run(): CMSIS-ADI: cmsis_dap_run
Debug: 994 2820 cortex_m.c:1568 cortex_m_load_core_reg_u32(): load from core reg 7  value 0xffffffff
Debug: 995 2820 adi_v5_cmsis_dap.c:156 cmsis_dap_queue_ap_write(): CMSIS-ADI: cmsis_dap_queue_ap_write 20 0x00000008
Debug: 996 2820 adi_v5_cmsis_dap.c:136 cmsis_dap_queue_ap_read(): CMSIS-ADI: cmsis_dap_queue_ap_read 24
Debug: 997 2820 adi_v5_cmsis_dap.c:233 cmsis_dap_run(): CMSIS-ADI: cmsis_dap_run
Debug: 998 2820 cortex_m.c:1568 cortex_m_load_core_reg_u32(): load from core reg 8  value 0xffffffff
Debug: 999 2820 adi_v5_cmsis_dap.c:156 cmsis_dap_queue_ap_write(): CMSIS-ADI: cmsis_dap_queue_ap_write 20 0x00000009
Debug: 1000 2820 adi_v5_cmsis_dap.c:136 cmsis_dap_queue_ap_read(): CMSIS-ADI: cmsis_dap_queue_ap_read 24
Debug: 1001 2820 adi_v5_cmsis_dap.c:233 cmsis_dap_run(): CMSIS-ADI: cmsis_dap_run
Debug: 1002 2820 cortex_m.c:1568 cortex_m_load_core_reg_u32(): load from core reg 9  value 0xffffffff
Debug: 1003 2820 adi_v5_cmsis_dap.c:156 cmsis_dap_queue_ap_write(): CMSIS-ADI: cmsis_dap_queue_ap_write 20 0x0000000a
Debug: 1004 2820 adi_v5_cmsis_dap.c:136 cmsis_dap_queue_ap_read(): CMSIS-ADI: cmsis_dap_queue_ap_read 24
Debug: 1005 2820 adi_v5_cmsis_dap.c:233 cmsis_dap_run(): CMSIS-ADI: cmsis_dap_run
Debug: 1006 2820 cortex_m.c:1568 cortex_m_load_core_reg_u32(): load from core reg 10  value 0xffffffff
Debug: 1007 2820 adi_v5_cmsis_dap.c:156 cmsis_dap_queue_ap_write(): CMSIS-ADI: cmsis_dap_queue_ap_write 20 0x0000000b
Debug: 1008 2820 adi_v5_cmsis_dap.c:136 cmsis_dap_queue_ap_read(): CMSIS-ADI: cmsis_dap_queue_ap_read 24
Debug: 1009 2820 adi_v5_cmsis_dap.c:233 cmsis_dap_run(): CMSIS-ADI: cmsis_dap_run
Debug: 1010 2820 cortex_m.c:1568 cortex_m_load_core_reg_u32(): load from core reg 11  value 0xffffffff
Debug: 1011 2820 adi_v5_cmsis_dap.c:156 cmsis_dap_queue_ap_write(): CMSIS-ADI: cmsis_dap_queue_ap_write 20 0x0000000c
Debug: 1012 2820 adi_v5_cmsis_dap.c:136 cmsis_dap_queue_ap_read(): CMSIS-ADI: cmsis_dap_queue_ap_read 24
Debug: 1013 2820 adi_v5_cmsis_dap.c:233 cmsis_dap_run(): CMSIS-ADI: cmsis_dap_run
Debug: 1014 2820 cortex_m.c:1568 cortex_m_load_core_reg_u32(): load from core reg 12  value 0xffffffff
Debug: 1015 2820 adi_v5_cmsis_dap.c:156 cmsis_dap_queue_ap_write(): CMSIS-ADI: cmsis_dap_queue_ap_write 20 0x0000000d
Debug: 1016 2820 adi_v5_cmsis_dap.c:136 cmsis_dap_queue_ap_read(): CMSIS-ADI: cmsis_dap_queue_ap_read 24
Debug: 1017 2820 adi_v5_cmsis_dap.c:233 cmsis_dap_run(): CMSIS-ADI: cmsis_dap_run
Debug: 1018 2820 cortex_m.c:1568 cortex_m_load_core_reg_u32(): load from core reg 13  value 0x20004000
Debug: 1019 2820 adi_v5_cmsis_dap.c:156 cmsis_dap_queue_ap_write(): CMSIS-ADI: cmsis_dap_queue_ap_write 20 0x0000000e
Debug: 1020 2820 adi_v5_cmsis_dap.c:136 cmsis_dap_queue_ap_read(): CMSIS-ADI: cmsis_dap_queue_ap_read 24
Debug: 1021 2820 adi_v5_cmsis_dap.c:233 cmsis_dap_run(): CMSIS-ADI: cmsis_dap_run
Debug: 1022 2820 cortex_m.c:1568 cortex_m_load_core_reg_u32(): load from core reg 14  value 0xffffffff
Debug: 1023 2820 adi_v5_cmsis_dap.c:156 cmsis_dap_queue_ap_write(): CMSIS-ADI: cmsis_dap_queue_ap_write 20 0x0000000f
Debug: 1024 2835 adi_v5_cmsis_dap.c:136 cmsis_dap_queue_ap_read(): CMSIS-ADI: cmsis_dap_queue_ap_read 24
Debug: 1025 2835 adi_v5_cmsis_dap.c:233 cmsis_dap_run(): CMSIS-ADI: cmsis_dap_run
Debug: 1026 2835 cortex_m.c:1568 cortex_m_load_core_reg_u32(): load from core reg 15  value 0x1b18
Debug: 1027 2835 adi_v5_cmsis_dap.c:156 cmsis_dap_queue_ap_write(): CMSIS-ADI: cmsis_dap_queue_ap_write 20 0x00000010
Debug: 1028 2835 adi_v5_cmsis_dap.c:136 cmsis_dap_queue_ap_read(): CMSIS-ADI: cmsis_dap_queue_ap_read 24
Debug: 1029 2835 adi_v5_cmsis_dap.c:233 cmsis_dap_run(): CMSIS-ADI: cmsis_dap_run
Debug: 1030 2835 cortex_m.c:1568 cortex_m_load_core_reg_u32(): load from core reg 16  value 0xc1000000
Debug: 1031 2835 adi_v5_cmsis_dap.c:156 cmsis_dap_queue_ap_write(): CMSIS-ADI: cmsis_dap_queue_ap_write 20 0x00000011
Debug: 1032 2835 adi_v5_cmsis_dap.c:136 cmsis_dap_queue_ap_read(): CMSIS-ADI: cmsis_dap_queue_ap_read 24
Debug: 1033 2835 adi_v5_cmsis_dap.c:233 cmsis_dap_run(): CMSIS-ADI: cmsis_dap_run
Debug: 1034 2835 cortex_m.c:1568 cortex_m_load_core_reg_u32(): load from core reg 17  value 0x20004000
Debug: 1035 2835 adi_v5_cmsis_dap.c:156 cmsis_dap_queue_ap_write(): CMSIS-ADI: cmsis_dap_queue_ap_write 20 0x00000012
Debug: 1036 2835 adi_v5_cmsis_dap.c:136 cmsis_dap_queue_ap_read(): CMSIS-ADI: cmsis_dap_queue_ap_read 24
Debug: 1037 2835 adi_v5_cmsis_dap.c:233 cmsis_dap_run(): CMSIS-ADI: cmsis_dap_run
Debug: 1038 2835 cortex_m.c:1568 cortex_m_load_core_reg_u32(): load from core reg 18  value 0xfffffffc
Debug: 1039 2835 adi_v5_cmsis_dap.c:156 cmsis_dap_queue_ap_write(): CMSIS-ADI: cmsis_dap_queue_ap_write 20 0x00000014
Debug: 1040 2835 adi_v5_cmsis_dap.c:136 cmsis_dap_queue_ap_read(): CMSIS-ADI: cmsis_dap_queue_ap_read 24
Debug: 1041 2835 adi_v5_cmsis_dap.c:233 cmsis_dap_run(): CMSIS-ADI: cmsis_dap_run
Debug: 1042 2835 cortex_m.c:1634 cortex_m_load_core_reg_u32(): load from special reg 19 value 0x0
Debug: 1043 2835 adi_v5_cmsis_dap.c:156 cmsis_dap_queue_ap_write(): CMSIS-ADI: cmsis_dap_queue_ap_write 20 0x00000014
Debug: 1044 2835 adi_v5_cmsis_dap.c:136 cmsis_dap_queue_ap_read(): CMSIS-ADI: cmsis_dap_queue_ap_read 24
Debug: 1045 2835 adi_v5_cmsis_dap.c:233 cmsis_dap_run(): CMSIS-ADI: cmsis_dap_run
Debug: 1046 2835 cortex_m.c:1634 cortex_m_load_core_reg_u32(): load from special reg 20 value 0x0
Debug: 1047 2835 adi_v5_cmsis_dap.c:156 cmsis_dap_queue_ap_write(): CMSIS-ADI: cmsis_dap_queue_ap_write 20 0x00000014
Debug: 1048 2835 adi_v5_cmsis_dap.c:136 cmsis_dap_queue_ap_read(): CMSIS-ADI: cmsis_dap_queue_ap_read 24
Debug: 1049 2835 adi_v5_cmsis_dap.c:233 cmsis_dap_run(): CMSIS-ADI: cmsis_dap_run
Debug: 1050 2835 cortex_m.c:1634 cortex_m_load_core_reg_u32(): load from special reg 21 value 0x0
Debug: 1051 2835 adi_v5_cmsis_dap.c:156 cmsis_dap_queue_ap_write(): CMSIS-ADI: cmsis_dap_queue_ap_write 20 0x00000014
Debug: 1052 2835 adi_v5_cmsis_dap.c:136 cmsis_dap_queue_ap_read(): CMSIS-ADI: cmsis_dap_queue_ap_read 24
Debug: 1053 2835 adi_v5_cmsis_dap.c:233 cmsis_dap_run(): CMSIS-ADI: cmsis_dap_run
Debug: 1054 2835 cortex_m.c:1634 cortex_m_load_core_reg_u32(): load from special reg 22 value 0x0
Debug: 1055 2835 cortex_m.c:515 cortex_m_debug_entry(): entered debug state in core mode: Thread at PC 0x1b18, target->state: halted
Debug: 1056 2835 target.c:1415 target_call_event_callbacks(): target event 0 (gdb-halt)
Debug: 1057 2835 target.c:1415 target_call_event_callbacks(): target event 1 (halted)
User : 1058 2835 target.c:1788 target_arch_state(): target state: halted
User : 1059 2835 armv7m.c:616 armv7m_arch_state(): target halted due to debug-request, current mode: Thread 
xPSR: 0xc1000000 pc: 0x00001b18 msp: 0x20004000
Debug: 1060 2835 target.c:1415 target_call_event_callbacks(): target event 6 (gdb-end)
Debug: 1061 2835 command.c:145 script_debug(): command - ocd_command ocd_command type ocd_GBQ868.cpu curstate
Debug: 1062 2835 command.c:145 script_debug(): command - ocd_GBQ868.cpu ocd_GBQ868.cpu curstate
Debug: 1063 2835 command.c:145 script_debug(): command - ocd_command ocd_command type ocd_GBQ868.cpu invoke-event reset-end
Debug: 1064 2835 command.c:145 script_debug(): command - ocd_GBQ868.cpu ocd_GBQ868.cpu invoke-event reset-end
Debug: 1065 2835 target.c:4436 target_handle_event(): target: (0) GBQ868.cpu (cortex_m) event: 18 (reset-end) action:  
	
	#Disable halt mode
	mww 0x50005040 0x87
	mww 0x50005040 0x9A
	mmw 0x50005050 0x0 0x8
	mww 0x50005040 0x00
	
	#Disable WDG
	#mww 0x400D0000 0x55
	#mww 0x400D0000 0x00

Debug: 1066 2835 command.c:145 script_debug(): command - ocd_command ocd_command type ocd_mww 0x50005040 0x87
Debug: 1067 2835 command.c:145 script_debug(): command - mww ocd_mww 0x50005040 0x87
Debug: 1068 2835 adi_v5_cmsis_dap.c:136 cmsis_dap_queue_ap_read(): CMSIS-ADI: cmsis_dap_queue_ap_read 16
Debug: 1069 2835 adi_v5_cmsis_dap.c:233 cmsis_dap_run(): CMSIS-ADI: cmsis_dap_run
Debug: 1071 2835 adi_v5_cmsis_dap.c:156 cmsis_dap_queue_ap_write(): CMSIS-ADI: cmsis_dap_queue_ap_write 4 0x50005040
Debug: 1072 2835 adi_v5_cmsis_dap.c:99 cmsis_dap_queue_dp_write(): CMSIS-ADI: cmsis_dap_queue_dp_write 8 0x00000000
Debug: 1073 2835 adi_v5_cmsis_dap.c:156 cmsis_dap_queue_ap_write(): CMSIS-ADI: cmsis_dap_queue_ap_write 0 0xa2000012
Debug: 1074 2851 adi_v5_cmsis_dap.c:156 cmsis_dap_queue_ap_write(): CMSIS-ADI: cmsis_dap_queue_ap_write 12 0x00000087
Debug: 1075 2851 adi_v5_cmsis_dap.c:233 cmsis_dap_run(): CMSIS-ADI: cmsis_dap_run
Debug: 1076 2851 command.c:145 script_debug(): command - ocd_command ocd_command type ocd_mww 0x50005040 0x9A
Debug: 1077 2851 command.c:145 script_debug(): command - mww ocd_mww 0x50005040 0x9A
Debug: 1078 2851 adi_v5_cmsis_dap.c:156 cmsis_dap_queue_ap_write(): CMSIS-ADI: cmsis_dap_queue_ap_write 0 0xa2000002
Debug: 1079 2851 adi_v5_cmsis_dap.c:156 cmsis_dap_queue_ap_write(): CMSIS-ADI: cmsis_dap_queue_ap_write 4 0xe000edf0
Debug: 1080 2851 adi_v5_cmsis_dap.c:136 cmsis_dap_queue_ap_read(): CMSIS-ADI: cmsis_dap_queue_ap_read 16
Debug: 1081 2851 adi_v5_cmsis_dap.c:99 cmsis_dap_queue_dp_write(): CMSIS-ADI: cmsis_dap_queue_dp_write 8 0x00000010
Debug: 1082 2851 adi_v5_cmsis_dap.c:233 cmsis_dap_run(): CMSIS-ADI: cmsis_dap_run
Debug: 1084 2851 adi_v5_cmsis_dap.c:156 cmsis_dap_queue_ap_write(): CMSIS-ADI: cmsis_dap_queue_ap_write 4 0x50005040
Debug: 1085 2851 adi_v5_cmsis_dap.c:99 cmsis_dap_queue_dp_write(): CMSIS-ADI: cmsis_dap_queue_dp_write 8 0x00000000
Debug: 1086 2851 adi_v5_cmsis_dap.c:156 cmsis_dap_queue_ap_write(): CMSIS-ADI: cmsis_dap_queue_ap_write 0 0xa2000012
Debug: 1087 2851 adi_v5_cmsis_dap.c:156 cmsis_dap_queue_ap_write(): CMSIS-ADI: cmsis_dap_queue_ap_write 12 0x0000009a
Debug: 1088 2851 adi_v5_cmsis_dap.c:233 cmsis_dap_run(): CMSIS-ADI: cmsis_dap_run
Debug: 1089 2851 adi_v5_cmsis_dap.c:156 cmsis_dap_queue_ap_write(): CMSIS-ADI: cmsis_dap_queue_ap_write 4 0x50005050
Debug: 1090 2851 adi_v5_cmsis_dap.c:136 cmsis_dap_queue_ap_read(): CMSIS-ADI: cmsis_dap_queue_ap_read 12
Debug: 1091 2851 adi_v5_cmsis_dap.c:233 cmsis_dap_run(): CMSIS-ADI: cmsis_dap_run
Debug: 1092 2851 command.c:145 script_debug(): command - ocd_command ocd_command type ocd_mww 0x50005050 23
Debug: 1093 2851 command.c:145 script_debug(): command - mww ocd_mww 0x50005050 23
Debug: 1094 2851 adi_v5_cmsis_dap.c:156 cmsis_dap_queue_ap_write(): CMSIS-ADI: cmsis_dap_queue_ap_write 0 0xa2000002
Debug: 1095 2851 adi_v5_cmsis_dap.c:156 cmsis_dap_queue_ap_write(): CMSIS-ADI: cmsis_dap_queue_ap_write 4 0xe000edf0
Debug: 1096 2851 adi_v5_cmsis_dap.c:136 cmsis_dap_queue_ap_read(): CMSIS-ADI: cmsis_dap_queue_ap_read 16
Debug: 1097 2851 adi_v5_cmsis_dap.c:99 cmsis_dap_queue_dp_write(): CMSIS-ADI: cmsis_dap_queue_dp_write 8 0x00000010
Debug: 1098 2851 adi_v5_cmsis_dap.c:233 cmsis_dap_run(): CMSIS-ADI: cmsis_dap_run
Debug: 1100 2851 adi_v5_cmsis_dap.c:156 cmsis_dap_queue_ap_write(): CMSIS-ADI: cmsis_dap_queue_ap_write 4 0x50005050
Debug: 1101 2851 adi_v5_cmsis_dap.c:99 cmsis_dap_queue_dp_write(): CMSIS-ADI: cmsis_dap_queue_dp_write 8 0x00000000
Debug: 1102 2851 adi_v5_cmsis_dap.c:156 cmsis_dap_queue_ap_write(): CMSIS-ADI: cmsis_dap_queue_ap_write 0 0xa2000012
Debug: 1103 2851 adi_v5_cmsis_dap.c:156 cmsis_dap_queue_ap_write(): CMSIS-ADI: cmsis_dap_queue_ap_write 12 0x00000017
Debug: 1104 2851 adi_v5_cmsis_dap.c:233 cmsis_dap_run(): CMSIS-ADI: cmsis_dap_run
Debug: 1105 2851 command.c:145 script_debug(): command - ocd_command ocd_command type ocd_mww 0x50005040 0x00
Debug: 1106 2851 command.c:145 script_debug(): command - mww ocd_mww 0x50005040 0x00
Debug: 1107 2851 adi_v5_cmsis_dap.c:156 cmsis_dap_queue_ap_write(): CMSIS-ADI: cmsis_dap_queue_ap_write 0 0xa2000002
Debug: 1108 2867 adi_v5_cmsis_dap.c:156 cmsis_dap_queue_ap_write(): CMSIS-ADI: cmsis_dap_queue_ap_write 4 0xe000edf0
Debug: 1109 2867 adi_v5_cmsis_dap.c:136 cmsis_dap_queue_ap_read(): CMSIS-ADI: cmsis_dap_queue_ap_read 16
Debug: 1110 2867 adi_v5_cmsis_dap.c:99 cmsis_dap_queue_dp_write(): CMSIS-ADI: cmsis_dap_queue_dp_write 8 0x00000010
Debug: 1111 2867 adi_v5_cmsis_dap.c:233 cmsis_dap_run(): CMSIS-ADI: cmsis_dap_run
Debug: 1113 2867 adi_v5_cmsis_dap.c:156 cmsis_dap_queue_ap_write(): CMSIS-ADI: cmsis_dap_queue_ap_write 4 0x50005040
Debug: 1114 2867 adi_v5_cmsis_dap.c:99 cmsis_dap_queue_dp_write(): CMSIS-ADI: cmsis_dap_queue_dp_write 8 0x00000000
Debug: 1115 2867 adi_v5_cmsis_dap.c:156 cmsis_dap_queue_ap_write(): CMSIS-ADI: cmsis_dap_queue_ap_write 0 0xa2000012
Debug: 1116 2867 adi_v5_cmsis_dap.c:156 cmsis_dap_queue_ap_write(): CMSIS-ADI: cmsis_dap_queue_ap_write 12 0x00000000
Debug: 1117 2867 adi_v5_cmsis_dap.c:233 cmsis_dap_run(): CMSIS-ADI: cmsis_dap_run
Debug: 1118 2867 adi_v5_cmsis_dap.c:156 cmsis_dap_queue_ap_write(): CMSIS-ADI: cmsis_dap_queue_ap_write 0 0xa2000002
Debug: 1119 2867 adi_v5_cmsis_dap.c:156 cmsis_dap_queue_ap_write(): CMSIS-ADI: cmsis_dap_queue_ap_write 4 0xe000edf0
Debug: 1120 2867 adi_v5_cmsis_dap.c:136 cmsis_dap_queue_ap_read(): CMSIS-ADI: cmsis_dap_queue_ap_read 16
Debug: 1121 2867 adi_v5_cmsis_dap.c:99 cmsis_dap_queue_dp_write(): CMSIS-ADI: cmsis_dap_queue_dp_write 8 0x00000010
Debug: 1122 2867 adi_v5_cmsis_dap.c:233 cmsis_dap_run(): CMSIS-ADI: cmsis_dap_run
Debug: 1123 2867 adi_v5_cmsis_dap.c:136 cmsis_dap_queue_ap_read(): CMSIS-ADI: cmsis_dap_queue_ap_read 16
Debug: 1124 2867 adi_v5_cmsis_dap.c:233 cmsis_dap_run(): CMSIS-ADI: cmsis_dap_run
Debug: 1125 2867 gdb_server.c:2836 gdb_input_inner(): received packet: 'g'
Debug: 1126 2867 gdb_server.c:2836 gdb_input_inner(): received packet: 'm1b18,4'
Debug: 1127 2867 gdb_server.c:1401 gdb_read_memory_packet(): addr: 0x00001b18, len: 0x00000004
Debug: 1128 2867 target.c:1930 target_read_buffer(): reading buffer of 4 byte at 0x00001b18
Debug: 1129 2867 adi_v5_cmsis_dap.c:156 cmsis_dap_queue_ap_write(): CMSIS-ADI: cmsis_dap_queue_ap_write 4 0x00001b18
Debug: 1130 2867 adi_v5_cmsis_dap.c:99 cmsis_dap_queue_dp_write(): CMSIS-ADI: cmsis_dap_queue_dp_write 8 0x00000000
Debug: 1131 2867 adi_v5_cmsis_dap.c:156 cmsis_dap_queue_ap_write(): CMSIS-ADI: cmsis_dap_queue_ap_write 0 0xa2000012
Debug: 1132 2867 adi_v5_cmsis_dap.c:136 cmsis_dap_queue_ap_read(): CMSIS-ADI: cmsis_dap_queue_ap_read 12
Debug: 1133 2867 adi_v5_cmsis_dap.c:233 cmsis_dap_run(): CMSIS-ADI: cmsis_dap_run
Debug: 1134 2904 gdb_server.c:2836 gdb_input_inner(): received packet: 'qRcmd,746573745f6c6f61645f696d61676520443a2f4b494d4152457e312f436f6d70616e792f47502f4b494d5f4e4f7e312f4750434d3330302f436f64652f5061636b2f5631307e312e305f4e2f53414d504c457e312f41323030305f7e312f475f4944457e312f62696e2f44656275672f4750434d335f7e312e454c46'
Debug: 1135 2904 adi_v5_cmsis_dap.c:156 cmsis_dap_queue_ap_write(): CMSIS-ADI: cmsis_dap_queue_ap_write 0 0xa2000002
Debug: 1136 2904 adi_v5_cmsis_dap.c:156 cmsis_dap_queue_ap_write(): CMSIS-ADI: cmsis_dap_queue_ap_write 4 0xe000edf0
Debug: 1137 2904 adi_v5_cmsis_dap.c:136 cmsis_dap_queue_ap_read(): CMSIS-ADI: cmsis_dap_queue_ap_read 16
Debug: 1138 2904 adi_v5_cmsis_dap.c:99 cmsis_dap_queue_dp_write(): CMSIS-ADI: cmsis_dap_queue_dp_write 8 0x00000010
Debug: 1139 2904 adi_v5_cmsis_dap.c:233 cmsis_dap_run(): CMSIS-ADI: cmsis_dap_run
Debug: 1140 2904 command.c:145 script_debug(): command - ocd_command ocd_command type ocd_test_load_image D:/KIMARE~1/Company/GP/KIM_NO~1/GPCM300/Code/Pack/V10~1.0_N/SAMPLE~1/A2000_~1/G_IDE~1/bin/Debug/GPCM3_~1.ELF
Debug: 1141 2904 command.c:145 script_debug(): command - test_load_image ocd_test_load_image D:/KIMARE~1/Company/GP/KIM_NO~1/GPCM300/Code/Pack/V10~1.0_N/SAMPLE~1/A2000_~1/G_IDE~1/bin/Debug/GPCM3_~1.ELF
Debug: 1142 2904 adi_v5_cmsis_dap.c:136 cmsis_dap_queue_ap_read(): CMSIS-ADI: cmsis_dap_queue_ap_read 16
Debug: 1143 2904 adi_v5_cmsis_dap.c:233 cmsis_dap_run(): CMSIS-ADI: cmsis_dap_run
Debug: 1145 2904 configuration.c:84 find_file(): found D:/KIMARE~1/Company/GP/KIM_NO~1/GPCM300/Code/Pack/V10~1.0_N/SAMPLE~1/A2000_~1/G_IDE~1/bin/Debug/GPCM3_~1.ELF
Info : 1146 2904 target.c:3125 handle_test_load_image_command(): Flash bank range list:
Info : 1147 2904 target.c:3155 handle_test_load_image_command(): 	bank  0: start 0x00000000, end 0x0000ffff
Info : 1148 2904 target.c:3155 handle_test_load_image_command(): 	bank  1: start 0x04000000, end 0x04ffffff
Info : 1149 2904 target.c:3174 handle_test_load_image_command(): Exam section 0x04000000 ~ 0x040000ff
Info : 1150 2904 target.c:3174 handle_test_load_image_command(): Exam section 0x04000100 ~ 0x040001ff
Info : 1151 2904 target.c:3174 handle_test_load_image_command(): Exam section 0x04000200 ~ 0x040003d0
Info : 1152 2904 target.c:3174 handle_test_load_image_command(): Exam section 0x040003d1 ~ 0x04000dca
Info : 1153 2904 target.c:3174 handle_test_load_image_command(): Exam section 0x04100000 ~ 0x0413fa4b
Info : 1154 2904 target.c:3174 handle_test_load_image_command(): Exam section 0x04000dfc ~ 0x04009fba
Info : 1155 2904 target.c:3174 handle_test_load_image_command(): Exam section 0x04009fbc ~ 0x04009fc3
Info : 1156 2904 target.c:3174 handle_test_load_image_command(): Exam section 0x04009fc4 ~ 0x0400a002
Debug: 1157 2904 adi_v5_cmsis_dap.c:136 cmsis_dap_queue_ap_read(): CMSIS-ADI: cmsis_dap_queue_ap_read 16
Debug: 1158 2904 adi_v5_cmsis_dap.c:233 cmsis_dap_run(): CMSIS-ADI: cmsis_dap_run
Debug: 1159 2951 gdb_server.c:2836 gdb_input_inner(): received packet: 'qRcmd,245f5441524745544e414d4520696e766f6b652d6576656e74206764622d666c6173682d77726974652d656e64'
Debug: 1160 2951 adi_v5_cmsis_dap.c:136 cmsis_dap_queue_ap_read(): CMSIS-ADI: cmsis_dap_queue_ap_read 16
Debug: 1161 2951 adi_v5_cmsis_dap.c:233 cmsis_dap_run(): CMSIS-ADI: cmsis_dap_run
Debug: 1162 2951 command.c:145 script_debug(): command - ocd_command ocd_command type ocd_GBQ868.cpu invoke-event gdb-flash-write-end
Debug: 1163 2951 command.c:145 script_debug(): command - ocd_GBQ868.cpu ocd_GBQ868.cpu invoke-event gdb-flash-write-end
Debug: 1164 2951 target.c:4436 target_handle_event(): target: (0) GBQ868.cpu (cortex_m) event: 28 (gdb-flash-write-end) action:  
	global _DAP_FLAG
	if { $_DAP_FLAG == 0 } {
		#disable cache
		mww 0x50000030 0x0
		set _DAP_FLAG 1
	}

Debug: 1165 2951 command.c:145 script_debug(): command - ocd_command ocd_command type ocd_mww 0x50000030 0x0
Debug: 1166 2951 command.c:145 script_debug(): command - mww ocd_mww 0x50000030 0x0
Debug: 1167 2951 adi_v5_cmsis_dap.c:136 cmsis_dap_queue_ap_read(): CMSIS-ADI: cmsis_dap_queue_ap_read 16
Debug: 1168 2951 adi_v5_cmsis_dap.c:233 cmsis_dap_run(): CMSIS-ADI: cmsis_dap_run
Debug: 1170 2951 adi_v5_cmsis_dap.c:156 cmsis_dap_queue_ap_write(): CMSIS-ADI: cmsis_dap_queue_ap_write 4 0x50000030
Debug: 1171 2951 adi_v5_cmsis_dap.c:99 cmsis_dap_queue_dp_write(): CMSIS-ADI: cmsis_dap_queue_dp_write 8 0x00000000
Debug: 1172 2951 adi_v5_cmsis_dap.c:156 cmsis_dap_queue_ap_write(): CMSIS-ADI: cmsis_dap_queue_ap_write 0 0xa2000012
Debug: 1173 2951 adi_v5_cmsis_dap.c:156 cmsis_dap_queue_ap_write(): CMSIS-ADI: cmsis_dap_queue_ap_write 12 0x00000000
Debug: 1174 2951 adi_v5_cmsis_dap.c:233 cmsis_dap_run(): CMSIS-ADI: cmsis_dap_run
User : 1175 2951 command.c:691 command_run_line(): 1User : 1176 2951 command.c:693 command_run_line(): 
Debug: 1177 2951 adi_v5_cmsis_dap.c:156 cmsis_dap_queue_ap_write(): CMSIS-ADI: cmsis_dap_queue_ap_write 0 0xa2000002
Debug: 1178 2951 adi_v5_cmsis_dap.c:156 cmsis_dap_queue_ap_write(): CMSIS-ADI: cmsis_dap_queue_ap_write 4 0xe000edf0
Debug: 1179 2951 adi_v5_cmsis_dap.c:136 cmsis_dap_queue_ap_read(): CMSIS-ADI: cmsis_dap_queue_ap_read 16
Debug: 1180 2951 adi_v5_cmsis_dap.c:99 cmsis_dap_queue_dp_write(): CMSIS-ADI: cmsis_dap_queue_dp_write 8 0x00000010
Debug: 1181 2951 adi_v5_cmsis_dap.c:233 cmsis_dap_run(): CMSIS-ADI: cmsis_dap_run
Debug: 1182 2983 gdb_server.c:2836 gdb_input_inner(): received packet: 'qRcmd,7665726966795f696d6167655f636865636b73756d20433a2f55736572732f6b696d6875616e672f417070446174612f4c6f63616c2f54656d702f475049333941432e746d70203078343030303030302062696e'
Debug: 1183 2983 adi_v5_cmsis_dap.c:136 cmsis_dap_queue_ap_read(): CMSIS-ADI: cmsis_dap_queue_ap_read 16
Debug: 1184 2983 adi_v5_cmsis_dap.c:233 cmsis_dap_run(): CMSIS-ADI: cmsis_dap_run
Debug: 1185 2983 command.c:145 script_debug(): command - ocd_command ocd_command type ocd_verify_image_checksum C:/Users/kimhuang/AppData/Local/Temp/GPI39AC.tmp 0x4000000 bin
Debug: 1186 2983 command.c:145 script_debug(): command - verify_image_checksum ocd_verify_image_checksum C:/Users/kimhuang/AppData/Local/Temp/GPI39AC.tmp 0x4000000 bin
Debug: 1187 2983 adi_v5_cmsis_dap.c:136 cmsis_dap_queue_ap_read(): CMSIS-ADI: cmsis_dap_queue_ap_read 16
Debug: 1188 2983 adi_v5_cmsis_dap.c:233 cmsis_dap_run(): CMSIS-ADI: cmsis_dap_run
Debug: 1190 2983 configuration.c:84 find_file(): found C:/Users/kimhuang/AppData/Local/Temp/GPI39AC.tmp
Info : 1191 2983 gpcm3800_spifc.c:1239 Sw_Crc32_Checksum_Verify(): Sw_Crc32_Checksum_Verify  src_addr 0x43, target_addr 0x4000000
Info : 1192 2983 gpcm3800_spifc.c:1240 Sw_Crc32_Checksum_Verify(): Sw_Crc32_Checksum_Verify  len 0x40000
Info : 1193 2983 gpcm3800_spifc.c:1329 Sw_Crc32_Checksum_Verify(): Allocating working area for GPCM3800 spifc_JILL_init algorithm
Debug: 1194 2983 target.c:1639 target_alloc_working_area_try(): allocated new working area of 1224 bytes at address 0x20000100
Debug: 1195 2983 target.c:1502 print_wa_layout():  * 0x20000100-0x200005c7 (1224 bytes)
Debug: 1196 2983 target.c:1502 print_wa_layout():    0x200005c8-0x200010ff (2872 bytes)
Info : 1197 2983 gpcm3800_spifc.c:1343 Sw_Crc32_Checksum_Verify(): Writing probe algorithm to working area at 0x20000100
Debug: 1198 2983 target.c:1869 target_write_buffer(): writing buffer of 1224 byte at 0x20000100
Debug: 1199 2983 adi_v5_cmsis_dap.c:156 cmsis_dap_queue_ap_write(): CMSIS-ADI: cmsis_dap_queue_ap_write 4 0x20000100
Debug: 1200 2983 adi_v5_cmsis_dap.c:99 cmsis_dap_queue_dp_write(): CMSIS-ADI: cmsis_dap_queue_dp_write 8 0x00000000
Debug: 1201 2983 adi_v5_cmsis_dap.c:156 cmsis_dap_queue_ap_write(): CMSIS-ADI: cmsis_dap_queue_ap_write 0 0xa2000012
Debug: 1202 2983 adi_v5_cmsis_dap.c:211 cmsis_dap_queue_ap_write_block(): CMSIS-ADI: cmsis_dap_queue_ap_write_block 0x00000300
Debug: 1203 2989 adi_v5_cmsis_dap.c:156 cmsis_dap_queue_ap_write(): CMSIS-ADI: cmsis_dap_queue_ap_write 4 0x20000400
Debug: 1204 2989 adi_v5_cmsis_dap.c:211 cmsis_dap_queue_ap_write_block(): CMSIS-ADI: cmsis_dap_queue_ap_write_block 0x000001c8
Debug: 1205 2989 adi_v5_cmsis_dap.c:233 cmsis_dap_run(): CMSIS-ADI: cmsis_dap_run
Info : 1206 2989 gpcm3800_spifc.c:1366 Sw_Crc32_Checksum_Verify(): probe spi clk [00000020]
Info : 1207 2989 gpcm3800_spifc.c:1368 Sw_Crc32_Checksum_Verify(): Running GPCM3800 probe algorithm
Debug: 1208 2989 target.c:1415 target_call_event_callbacks(): target event 3 (resume-start)
Debug: 1209 2989 armv7m.c:209 armv7m_restore_context():  
Debug: 1210 2989 armv7m.c:341 armv7m_write_core_reg(): write core reg 19 value 0x1
Debug: 1211 2989 adi_v5_cmsis_dap.c:156 cmsis_dap_queue_ap_write(): CMSIS-ADI: cmsis_dap_queue_ap_write 0 0xa2000002
Debug: 1212 2989 adi_v5_cmsis_dap.c:156 cmsis_dap_queue_ap_write(): CMSIS-ADI: cmsis_dap_queue_ap_write 4 0xe000edf0
Debug: 1213 3005 adi_v5_cmsis_dap.c:156 cmsis_dap_queue_ap_write(): CMSIS-ADI: cmsis_dap_queue_ap_write 20 0x00000014
Debug: 1214 3005 adi_v5_cmsis_dap.c:99 cmsis_dap_queue_dp_write(): CMSIS-ADI: cmsis_dap_queue_dp_write 8 0x00000010
Debug: 1215 3005 adi_v5_cmsis_dap.c:136 cmsis_dap_queue_ap_read(): CMSIS-ADI: cmsis_dap_queue_ap_read 24
Debug: 1216 3005 adi_v5_cmsis_dap.c:233 cmsis_dap_run(): CMSIS-ADI: cmsis_dap_run
Debug: 1217 3005 adi_v5_cmsis_dap.c:156 cmsis_dap_queue_ap_write(): CMSIS-ADI: cmsis_dap_queue_ap_write 24 0x00000001
Debug: 1218 3005 adi_v5_cmsis_dap.c:156 cmsis_dap_queue_ap_write(): CMSIS-ADI: cmsis_dap_queue_ap_write 20 0x00010014
Debug: 1219 3005 adi_v5_cmsis_dap.c:233 cmsis_dap_run(): CMSIS-ADI: cmsis_dap_run
Debug: 1220 3005 cortex_m.c:1733 cortex_m_store_core_reg_u32(): write special reg 19 value 0x1 
Debug: 1221 3005 armv7m.c:341 armv7m_write_core_reg(): write core reg 16 value 0xc1000000
Debug: 1222 3005 adi_v5_cmsis_dap.c:156 cmsis_dap_queue_ap_write(): CMSIS-ADI: cmsis_dap_queue_ap_write 24 0xc1000000
Debug: 1223 3005 adi_v5_cmsis_dap.c:156 cmsis_dap_queue_ap_write(): CMSIS-ADI: cmsis_dap_queue_ap_write 20 0x00010010
Debug: 1224 3005 adi_v5_cmsis_dap.c:233 cmsis_dap_run(): CMSIS-ADI: cmsis_dap_run
Debug: 1225 3005 cortex_m.c:1666 cortex_m_store_core_reg_u32(): write core reg 16 value 0xc1000000
Debug: 1226 3005 armv7m.c:341 armv7m_write_core_reg(): write core reg 15 value 0x20000100
Debug: 1227 3005 adi_v5_cmsis_dap.c:156 cmsis_dap_queue_ap_write(): CMSIS-ADI: cmsis_dap_queue_ap_write 24 0x20000100
Debug: 1228 3005 adi_v5_cmsis_dap.c:156 cmsis_dap_queue_ap_write(): CMSIS-ADI: cmsis_dap_queue_ap_write 20 0x0001000f
Debug: 1229 3005 adi_v5_cmsis_dap.c:233 cmsis_dap_run(): CMSIS-ADI: cmsis_dap_run
Debug: 1230 3005 cortex_m.c:1666 cortex_m_store_core_reg_u32(): write core reg 15 value 0x20000100
Debug: 1231 3005 armv7m.c:341 armv7m_write_core_reg(): write core reg 0 value 0x20
Debug: 1232 3005 adi_v5_cmsis_dap.c:156 cmsis_dap_queue_ap_write(): CMSIS-ADI: cmsis_dap_queue_ap_write 24 0x00000020
Debug: 1233 3005 adi_v5_cmsis_dap.c:156 cmsis_dap_queue_ap_write(): CMSIS-ADI: cmsis_dap_queue_ap_write 20 0x00010000
Debug: 1234 3005 adi_v5_cmsis_dap.c:233 cmsis_dap_run(): CMSIS-ADI: cmsis_dap_run
Debug: 1235 3005 cortex_m.c:1666 cortex_m_store_core_reg_u32(): write core reg 0 value 0x20
Debug: 1236 3005 adi_v5_cmsis_dap.c:156 cmsis_dap_queue_ap_write(): CMSIS-ADI: cmsis_dap_queue_ap_write 16 0xa05f0001
Debug: 1237 3005 adi_v5_cmsis_dap.c:233 cmsis_dap_run(): CMSIS-ADI: cmsis_dap_run
Debug: 1238 3005 target.c:1415 target_call_event_callbacks(): target event 20 (debug-resumed)
Debug: 1239 3005 cortex_m.c:847 cortex_m_resume(): target debug resumed at 0x20000100
Debug: 1240 3005 target.c:1415 target_call_event_callbacks(): target event 4 (resume-end)
Debug: 1241 3005 adi_v5_cmsis_dap.c:136 cmsis_dap_queue_ap_read(): CMSIS-ADI: cmsis_dap_queue_ap_read 16
Debug: 1242 3005 adi_v5_cmsis_dap.c:233 cmsis_dap_run(): CMSIS-ADI: cmsis_dap_run
Debug: 1243 3005 cortex_m.c:623 cortex_m_poll():  
Debug: 1244 3005 cortex_m.c:455 cortex_m_debug_entry():  
Debug: 1245 3005 adi_v5_cmsis_dap.c:156 cmsis_dap_queue_ap_write(): CMSIS-ADI: cmsis_dap_queue_ap_write 16 0xa05f0003
Debug: 1246 3005 adi_v5_cmsis_dap.c:233 cmsis_dap_run(): CMSIS-ADI: cmsis_dap_run
Debug: 1247 3005 adi_v5_cmsis_dap.c:156 cmsis_dap_queue_ap_write(): CMSIS-ADI: cmsis_dap_queue_ap_write 4 0xe000ed30
Debug: 1248 3005 adi_v5_cmsis_dap.c:99 cmsis_dap_queue_dp_write(): CMSIS-ADI: cmsis_dap_queue_dp_write 8 0x00000000
Debug: 1249 3005 adi_v5_cmsis_dap.c:136 cmsis_dap_queue_ap_read(): CMSIS-ADI: cmsis_dap_queue_ap_read 16
Debug: 1250 3005 adi_v5_cmsis_dap.c:99 cmsis_dap_queue_dp_write(): CMSIS-ADI: cmsis_dap_queue_dp_write 8 0x00000010
Debug: 1251 3005 adi_v5_cmsis_dap.c:233 cmsis_dap_run(): CMSIS-ADI: cmsis_dap_run
Debug: 1252 3005 adi_v5_cmsis_dap.c:156 cmsis_dap_queue_ap_write(): CMSIS-ADI: cmsis_dap_queue_ap_write 16 0x00000003
Debug: 1253 3005 adi_v5_cmsis_dap.c:233 cmsis_dap_run(): CMSIS-ADI: cmsis_dap_run
Debug: 1254 3005 cortex_m.c:203 cortex_m_clear_halt():  NVIC_DFSR 0x3
Debug: 1255 3005 adi_v5_cmsis_dap.c:156 cmsis_dap_queue_ap_write(): CMSIS-ADI: cmsis_dap_queue_ap_write 4 0xe000edf0
Debug: 1256 3005 adi_v5_cmsis_dap.c:99 cmsis_dap_queue_dp_write(): CMSIS-ADI: cmsis_dap_queue_dp_write 8 0x00000000
Debug: 1257 3020 adi_v5_cmsis_dap.c:136 cmsis_dap_queue_ap_read(): CMSIS-ADI: cmsis_dap_queue_ap_read 16
Debug: 1258 3020 adi_v5_cmsis_dap.c:99 cmsis_dap_queue_dp_write(): CMSIS-ADI: cmsis_dap_queue_dp_write 8 0x00000010
Debug: 1259 3020 adi_v5_cmsis_dap.c:233 cmsis_dap_run(): CMSIS-ADI: cmsis_dap_run
Debug: 1260 3020 adi_v5_cmsis_dap.c:156 cmsis_dap_queue_ap_write(): CMSIS-ADI: cmsis_dap_queue_ap_write 20 0x00000000
Debug: 1261 3020 adi_v5_cmsis_dap.c:136 cmsis_dap_queue_ap_read(): CMSIS-ADI: cmsis_dap_queue_ap_read 24
Debug: 1262 3020 adi_v5_cmsis_dap.c:233 cmsis_dap_run(): CMSIS-ADI: cmsis_dap_run
Debug: 1263 3020 cortex_m.c:1568 cortex_m_load_core_reg_u32(): load from core reg 0  value 0x18
Debug: 1264 3020 adi_v5_cmsis_dap.c:156 cmsis_dap_queue_ap_write(): CMSIS-ADI: cmsis_dap_queue_ap_write 20 0x00000001
Debug: 1265 3020 adi_v5_cmsis_dap.c:136 cmsis_dap_queue_ap_read(): CMSIS-ADI: cmsis_dap_queue_ap_read 24
Debug: 1266 3020 adi_v5_cmsis_dap.c:233 cmsis_dap_run(): CMSIS-ADI: cmsis_dap_run
Debug: 1267 3020 cortex_m.c:1568 cortex_m_load_core_reg_u32(): load from core reg 1  value 0x1
Debug: 1268 3020 adi_v5_cmsis_dap.c:156 cmsis_dap_queue_ap_write(): CMSIS-ADI: cmsis_dap_queue_ap_write 20 0x00000002
Debug: 1269 3020 adi_v5_cmsis_dap.c:136 cmsis_dap_queue_ap_read(): CMSIS-ADI: cmsis_dap_queue_ap_read 24
Debug: 1270 3020 adi_v5_cmsis_dap.c:233 cmsis_dap_run(): CMSIS-ADI: cmsis_dap_run
Debug: 1271 3020 cortex_m.c:1568 cortex_m_load_core_reg_u32(): load from core reg 2  value 0x1
Debug: 1272 3020 adi_v5_cmsis_dap.c:156 cmsis_dap_queue_ap_write(): CMSIS-ADI: cmsis_dap_queue_ap_write 20 0x00000003
Debug: 1273 3020 adi_v5_cmsis_dap.c:136 cmsis_dap_queue_ap_read(): CMSIS-ADI: cmsis_dap_queue_ap_read 24
Debug: 1274 3020 adi_v5_cmsis_dap.c:233 cmsis_dap_run(): CMSIS-ADI: cmsis_dap_run
Debug: 1275 3020 cortex_m.c:1568 cortex_m_load_core_reg_u32(): load from core reg 3  value 0x50060000
Debug: 1276 3020 adi_v5_cmsis_dap.c:156 cmsis_dap_queue_ap_write(): CMSIS-ADI: cmsis_dap_queue_ap_write 20 0x00000004
Debug: 1277 3020 adi_v5_cmsis_dap.c:136 cmsis_dap_queue_ap_read(): CMSIS-ADI: cmsis_dap_queue_ap_read 24
Debug: 1278 3020 adi_v5_cmsis_dap.c:233 cmsis_dap_run(): CMSIS-ADI: cmsis_dap_run
Debug: 1279 3020 cortex_m.c:1568 cortex_m_load_core_reg_u32(): load from core reg 4  value 0x18
Debug: 1280 3020 adi_v5_cmsis_dap.c:156 cmsis_dap_queue_ap_write(): CMSIS-ADI: cmsis_dap_queue_ap_write 20 0x00000005
Debug: 1281 3020 adi_v5_cmsis_dap.c:136 cmsis_dap_queue_ap_read(): CMSIS-ADI: cmsis_dap_queue_ap_read 24
Debug: 1282 3020 adi_v5_cmsis_dap.c:233 cmsis_dap_run(): CMSIS-ADI: cmsis_dap_run
Debug: 1283 3020 cortex_m.c:1568 cortex_m_load_core_reg_u32(): load from core reg 5  value 0x0
Debug: 1284 3020 adi_v5_cmsis_dap.c:156 cmsis_dap_queue_ap_write(): CMSIS-ADI: cmsis_dap_queue_ap_write 20 0x00000006
Debug: 1285 3020 adi_v5_cmsis_dap.c:136 cmsis_dap_queue_ap_read(): CMSIS-ADI: cmsis_dap_queue_ap_read 24
Debug: 1286 3020 adi_v5_cmsis_dap.c:233 cmsis_dap_run(): CMSIS-ADI: cmsis_dap_run
Debug: 1287 3020 cortex_m.c:1568 cortex_m_load_core_reg_u32(): load from core reg 6  value 0x0
Debug: 1288 3020 adi_v5_cmsis_dap.c:156 cmsis_dap_queue_ap_write(): CMSIS-ADI: cmsis_dap_queue_ap_write 20 0x00000007
Debug: 1289 3020 adi_v5_cmsis_dap.c:136 cmsis_dap_queue_ap_read(): CMSIS-ADI: cmsis_dap_queue_ap_read 24
Debug: 1290 3020 adi_v5_cmsis_dap.c:233 cmsis_dap_run(): CMSIS-ADI: cmsis_dap_run
Debug: 1291 3020 cortex_m.c:1568 cortex_m_load_core_reg_u32(): load from core reg 7  value 0x46
Debug: 1292 3020 adi_v5_cmsis_dap.c:156 cmsis_dap_queue_ap_write(): CMSIS-ADI: cmsis_dap_queue_ap_write 20 0x00000008
Debug: 1293 3036 adi_v5_cmsis_dap.c:136 cmsis_dap_queue_ap_read(): CMSIS-ADI: cmsis_dap_queue_ap_read 24
Debug: 1294 3036 adi_v5_cmsis_dap.c:233 cmsis_dap_run(): CMSIS-ADI: cmsis_dap_run
Debug: 1295 3036 cortex_m.c:1568 cortex_m_load_core_reg_u32(): load from core reg 8  value 0x40
Debug: 1296 3036 adi_v5_cmsis_dap.c:156 cmsis_dap_queue_ap_write(): CMSIS-ADI: cmsis_dap_queue_ap_write 20 0x00000009
Debug: 1297 3036 adi_v5_cmsis_dap.c:136 cmsis_dap_queue_ap_read(): CMSIS-ADI: cmsis_dap_queue_ap_read 24
Debug: 1298 3036 adi_v5_cmsis_dap.c:233 cmsis_dap_run(): CMSIS-ADI: cmsis_dap_run
Debug: 1299 3036 cortex_m.c:1568 cortex_m_load_core_reg_u32(): load from core reg 9  value 0xffffffff
Debug: 1300 3036 adi_v5_cmsis_dap.c:156 cmsis_dap_queue_ap_write(): CMSIS-ADI: cmsis_dap_queue_ap_write 20 0x0000000a
Debug: 1301 3036 adi_v5_cmsis_dap.c:136 cmsis_dap_queue_ap_read(): CMSIS-ADI: cmsis_dap_queue_ap_read 24
Debug: 1302 3036 adi_v5_cmsis_dap.c:233 cmsis_dap_run(): CMSIS-ADI: cmsis_dap_run
Debug: 1303 3036 cortex_m.c:1568 cortex_m_load_core_reg_u32(): load from core reg 10  value 0xffffffff
Debug: 1304 3036 adi_v5_cmsis_dap.c:156 cmsis_dap_queue_ap_write(): CMSIS-ADI: cmsis_dap_queue_ap_write 20 0x0000000b
Debug: 1305 3036 adi_v5_cmsis_dap.c:136 cmsis_dap_queue_ap_read(): CMSIS-ADI: cmsis_dap_queue_ap_read 24
Debug: 1306 3036 adi_v5_cmsis_dap.c:233 cmsis_dap_run(): CMSIS-ADI: cmsis_dap_run
Debug: 1307 3036 cortex_m.c:1568 cortex_m_load_core_reg_u32(): load from core reg 11  value 0xffffffff
Debug: 1308 3036 adi_v5_cmsis_dap.c:156 cmsis_dap_queue_ap_write(): CMSIS-ADI: cmsis_dap_queue_ap_write 20 0x0000000c
Debug: 1309 3036 adi_v5_cmsis_dap.c:136 cmsis_dap_queue_ap_read(): CMSIS-ADI: cmsis_dap_queue_ap_read 24
Debug: 1310 3036 adi_v5_cmsis_dap.c:233 cmsis_dap_run(): CMSIS-ADI: cmsis_dap_run
Debug: 1311 3036 cortex_m.c:1568 cortex_m_load_core_reg_u32(): load from core reg 12  value 0xffffffff
Debug: 1312 3036 adi_v5_cmsis_dap.c:156 cmsis_dap_queue_ap_write(): CMSIS-ADI: cmsis_dap_queue_ap_write 20 0x0000000d
Debug: 1313 3036 adi_v5_cmsis_dap.c:136 cmsis_dap_queue_ap_read(): CMSIS-ADI: cmsis_dap_queue_ap_read 24
Debug: 1314 3036 adi_v5_cmsis_dap.c:233 cmsis_dap_run(): CMSIS-ADI: cmsis_dap_run
Debug: 1315 3036 cortex_m.c:1568 cortex_m_load_core_reg_u32(): load from core reg 13  value 0x20004000
Debug: 1316 3036 adi_v5_cmsis_dap.c:156 cmsis_dap_queue_ap_write(): CMSIS-ADI: cmsis_dap_queue_ap_write 20 0x0000000e
Debug: 1317 3036 adi_v5_cmsis_dap.c:136 cmsis_dap_queue_ap_read(): CMSIS-ADI: cmsis_dap_queue_ap_read 24
Debug: 1318 3036 adi_v5_cmsis_dap.c:233 cmsis_dap_run(): CMSIS-ADI: cmsis_dap_run
Debug: 1319 3036 cortex_m.c:1568 cortex_m_load_core_reg_u32(): load from core reg 14  value 0xffffffff
Debug: 1320 3036 adi_v5_cmsis_dap.c:156 cmsis_dap_queue_ap_write(): CMSIS-ADI: cmsis_dap_queue_ap_write 20 0x0000000f
Debug: 1321 3036 adi_v5_cmsis_dap.c:136 cmsis_dap_queue_ap_read(): CMSIS-ADI: cmsis_dap_queue_ap_read 24
Debug: 1322 3036 adi_v5_cmsis_dap.c:233 cmsis_dap_run(): CMSIS-ADI: cmsis_dap_run
Debug: 1323 3036 cortex_m.c:1568 cortex_m_load_core_reg_u32(): load from core reg 15  value 0x20000562
Debug: 1324 3036 adi_v5_cmsis_dap.c:156 cmsis_dap_queue_ap_write(): CMSIS-ADI: cmsis_dap_queue_ap_write 20 0x00000010
Debug: 1325 3036 adi_v5_cmsis_dap.c:136 cmsis_dap_queue_ap_read(): CMSIS-ADI: cmsis_dap_queue_ap_read 24
Debug: 1326 3036 adi_v5_cmsis_dap.c:233 cmsis_dap_run(): CMSIS-ADI: cmsis_dap_run
Debug: 1327 3036 cortex_m.c:1568 cortex_m_load_core_reg_u32(): load from core reg 16  value 0x21000000
Debug: 1328 3036 adi_v5_cmsis_dap.c:156 cmsis_dap_queue_ap_write(): CMSIS-ADI: cmsis_dap_queue_ap_write 20 0x00000011
Debug: 1329 3036 adi_v5_cmsis_dap.c:136 cmsis_dap_queue_ap_read(): CMSIS-ADI: cmsis_dap_queue_ap_read 24
Debug: 1330 3036 adi_v5_cmsis_dap.c:233 cmsis_dap_run(): CMSIS-ADI: cmsis_dap_run
Debug: 1331 3036 cortex_m.c:1568 cortex_m_load_core_reg_u32(): load from core reg 17  value 0x20004000
Debug: 1332 3036 adi_v5_cmsis_dap.c:156 cmsis_dap_queue_ap_write(): CMSIS-ADI: cmsis_dap_queue_ap_write 20 0x00000012
Debug: 1333 3052 adi_v5_cmsis_dap.c:136 cmsis_dap_queue_ap_read(): CMSIS-ADI: cmsis_dap_queue_ap_read 24
Debug: 1334 3052 adi_v5_cmsis_dap.c:233 cmsis_dap_run(): CMSIS-ADI: cmsis_dap_run
Debug: 1335 3052 cortex_m.c:1568 cortex_m_load_core_reg_u32(): load from core reg 18  value 0xfffffffc
Debug: 1336 3052 adi_v5_cmsis_dap.c:156 cmsis_dap_queue_ap_write(): CMSIS-ADI: cmsis_dap_queue_ap_write 20 0x00000014
Debug: 1337 3052 adi_v5_cmsis_dap.c:136 cmsis_dap_queue_ap_read(): CMSIS-ADI: cmsis_dap_queue_ap_read 24
Debug: 1338 3052 adi_v5_cmsis_dap.c:233 cmsis_dap_run(): CMSIS-ADI: cmsis_dap_run
Debug: 1339 3052 cortex_m.c:1634 cortex_m_load_core_reg_u32(): load from special reg 19 value 0x1
Debug: 1340 3052 adi_v5_cmsis_dap.c:156 cmsis_dap_queue_ap_write(): CMSIS-ADI: cmsis_dap_queue_ap_write 20 0x00000014
Debug: 1341 3052 adi_v5_cmsis_dap.c:136 cmsis_dap_queue_ap_read(): CMSIS-ADI: cmsis_dap_queue_ap_read 24
Debug: 1342 3052 adi_v5_cmsis_dap.c:233 cmsis_dap_run(): CMSIS-ADI: cmsis_dap_run
Debug: 1343 3052 cortex_m.c:1634 cortex_m_load_core_reg_u32(): load from special reg 20 value 0x0
Debug: 1344 3052 adi_v5_cmsis_dap.c:156 cmsis_dap_queue_ap_write(): CMSIS-ADI: cmsis_dap_queue_ap_write 20 0x00000014
Debug: 1345 3052 adi_v5_cmsis_dap.c:136 cmsis_dap_queue_ap_read(): CMSIS-ADI: cmsis_dap_queue_ap_read 24
Debug: 1346 3052 adi_v5_cmsis_dap.c:233 cmsis_dap_run(): CMSIS-ADI: cmsis_dap_run
Debug: 1347 3052 cortex_m.c:1634 cortex_m_load_core_reg_u32(): load from special reg 21 value 0x0
Debug: 1348 3052 adi_v5_cmsis_dap.c:156 cmsis_dap_queue_ap_write(): CMSIS-ADI: cmsis_dap_queue_ap_write 20 0x00000014
Debug: 1349 3052 adi_v5_cmsis_dap.c:136 cmsis_dap_queue_ap_read(): CMSIS-ADI: cmsis_dap_queue_ap_read 24
Debug: 1350 3052 adi_v5_cmsis_dap.c:233 cmsis_dap_run(): CMSIS-ADI: cmsis_dap_run
Debug: 1351 3052 cortex_m.c:1634 cortex_m_load_core_reg_u32(): load from special reg 22 value 0x0
Debug: 1352 3052 cortex_m.c:515 cortex_m_debug_entry(): entered debug state in core mode: Thread at PC 0x20000562, target->state: halted
Debug: 1353 3052 target.c:1415 target_call_event_callbacks(): target event 19 (debug-halted)
Debug: 1354 3052 adi_v5_cmsis_dap.c:156 cmsis_dap_queue_ap_write(): CMSIS-ADI: cmsis_dap_queue_ap_write 20 0x0000000f
Debug: 1355 3052 adi_v5_cmsis_dap.c:136 cmsis_dap_queue_ap_read(): CMSIS-ADI: cmsis_dap_queue_ap_read 24
Debug: 1356 3052 adi_v5_cmsis_dap.c:233 cmsis_dap_run(): CMSIS-ADI: cmsis_dap_run
Debug: 1357 3052 cortex_m.c:1568 cortex_m_load_core_reg_u32(): load from core reg 15  value 0x20000562
Debug: 1358 3052 armv7m.c:575 armv7m_wait_algorithm(): restoring register primask with value 0x00000000
Debug: 1359 3052 armv7m.c:575 armv7m_wait_algorithm(): restoring register xPSR with value 0xc1000000
Debug: 1360 3052 armv7m.c:575 armv7m_wait_algorithm(): restoring register pc with value 0x00001b18
Debug: 1361 3052 armv7m.c:575 armv7m_wait_algorithm(): restoring register r8 with value 0xffffffff
Debug: 1362 3052 armv7m.c:575 armv7m_wait_algorithm(): restoring register r7 with value 0xffffffff
Debug: 1363 3052 armv7m.c:575 armv7m_wait_algorithm(): restoring register r6 with value 0xffffffff
Debug: 1364 3052 armv7m.c:575 armv7m_wait_algorithm(): restoring register r5 with value 0xffffffff
Debug: 1365 3052 armv7m.c:575 armv7m_wait_algorithm(): restoring register r4 with value 0xffffffff
Debug: 1366 3052 armv7m.c:575 armv7m_wait_algorithm(): restoring register r3 with value 0xffffffff
Debug: 1367 3052 armv7m.c:575 armv7m_wait_algorithm(): restoring register r2 with value 0xffffffff
Debug: 1368 3052 armv7m.c:575 armv7m_wait_algorithm(): restoring register r1 with value 0xffffffff
Debug: 1369 3052 armv7m.c:575 armv7m_wait_algorithm(): restoring register r0 with value 0xffffffff
Debug: 1370 3052 target.c:1708 target_free_working_area_restore(): freed 1224 bytes of working area at address 0x20000100
Debug: 1371 3052 target.c:1502 print_wa_layout():    0x20000100-0x200010ff (4096 bytes)
Debug: 1372 3052 image.c:1134 image_calculate_checksum(): Calculating checksum
Debug: 1373 3052 image.c:1165 image_calculate_checksum(): Calculating checksum done
Info : 1374 3052 gpcm3800_spifc.c:1388 Sw_Crc32_Checksum_Verify(): target_checksum_memory
Debug: 1375 3052 target.c:1639 target_alloc_working_area_try(): allocated new working area of 52 bytes at address 0x20000100
Debug: 1376 3052 target.c:1502 print_wa_layout():  * 0x20000100-0x20000133 (52 bytes)
Debug: 1377 3052 target.c:1502 print_wa_layout():    0x20000134-0x200010ff (4044 bytes)
Debug: 1378 3052 target.c:1869 target_write_buffer(): writing buffer of 52 byte at 0x20000100
Debug: 1379 3052 adi_v5_cmsis_dap.c:156 cmsis_dap_queue_ap_write(): CMSIS-ADI: cmsis_dap_queue_ap_write 4 0x20000100
Debug: 1380 3052 adi_v5_cmsis_dap.c:99 cmsis_dap_queue_dp_write(): CMSIS-ADI: cmsis_dap_queue_dp_write 8 0x00000000
Debug: 1381 3052 adi_v5_cmsis_dap.c:156 cmsis_dap_queue_ap_write(): CMSIS-ADI: cmsis_dap_queue_ap_write 0 0xa2000012
Debug: 1382 3052 adi_v5_cmsis_dap.c:211 cmsis_dap_queue_ap_write_block(): CMSIS-ADI: cmsis_dap_queue_ap_write_block 0x00000034
Debug: 1383 3052 adi_v5_cmsis_dap.c:233 cmsis_dap_run(): CMSIS-ADI: cmsis_dap_run
Debug: 1384 3052 target.c:1415 target_call_event_callbacks(): target event 3 (resume-start)
Debug: 1385 3052 armv7m.c:209 armv7m_restore_context():  
Debug: 1386 3052 armv7m.c:341 armv7m_write_core_reg(): write core reg 19 value 0x1
Debug: 1387 3052 adi_v5_cmsis_dap.c:156 cmsis_dap_queue_ap_write(): CMSIS-ADI: cmsis_dap_queue_ap_write 0 0xa2000002
Debug: 1388 3052 adi_v5_cmsis_dap.c:156 cmsis_dap_queue_ap_write(): CMSIS-ADI: cmsis_dap_queue_ap_write 4 0xe000edf0
Debug: 1389 3052 adi_v5_cmsis_dap.c:156 cmsis_dap_queue_ap_write(): CMSIS-ADI: cmsis_dap_queue_ap_write 20 0x00000014
Debug: 1390 3052 adi_v5_cmsis_dap.c:99 cmsis_dap_queue_dp_write(): CMSIS-ADI: cmsis_dap_queue_dp_write 8 0x00000010
Debug: 1391 3067 adi_v5_cmsis_dap.c:136 cmsis_dap_queue_ap_read(): CMSIS-ADI: cmsis_dap_queue_ap_read 24
Debug: 1392 3067 adi_v5_cmsis_dap.c:233 cmsis_dap_run(): CMSIS-ADI: cmsis_dap_run
Debug: 1393 3067 adi_v5_cmsis_dap.c:156 cmsis_dap_queue_ap_write(): CMSIS-ADI: cmsis_dap_queue_ap_write 24 0x00000001
Debug: 1394 3067 adi_v5_cmsis_dap.c:156 cmsis_dap_queue_ap_write(): CMSIS-ADI: cmsis_dap_queue_ap_write 20 0x00010014
Debug: 1395 3067 adi_v5_cmsis_dap.c:233 cmsis_dap_run(): CMSIS-ADI: cmsis_dap_run
Debug: 1396 3067 cortex_m.c:1733 cortex_m_store_core_reg_u32(): write special reg 19 value 0x1 
Debug: 1397 3067 armv7m.c:341 armv7m_write_core_reg(): write core reg 16 value 0xc1000000
Debug: 1398 3067 adi_v5_cmsis_dap.c:156 cmsis_dap_queue_ap_write(): CMSIS-ADI: cmsis_dap_queue_ap_write 24 0xc1000000
Debug: 1399 3067 adi_v5_cmsis_dap.c:156 cmsis_dap_queue_ap_write(): CMSIS-ADI: cmsis_dap_queue_ap_write 20 0x00010010
Debug: 1400 3067 adi_v5_cmsis_dap.c:233 cmsis_dap_run(): CMSIS-ADI: cmsis_dap_run
Debug: 1401 3067 cortex_m.c:1666 cortex_m_store_core_reg_u32(): write core reg 16 value 0xc1000000
Debug: 1402 3067 armv7m.c:341 armv7m_write_core_reg(): write core reg 15 value 0x20000100
Debug: 1403 3067 adi_v5_cmsis_dap.c:156 cmsis_dap_queue_ap_write(): CMSIS-ADI: cmsis_dap_queue_ap_write 24 0x20000100
Debug: 1404 3067 adi_v5_cmsis_dap.c:156 cmsis_dap_queue_ap_write(): CMSIS-ADI: cmsis_dap_queue_ap_write 20 0x0001000f
Debug: 1405 3067 adi_v5_cmsis_dap.c:233 cmsis_dap_run(): CMSIS-ADI: cmsis_dap_run
Debug: 1406 3067 cortex_m.c:1666 cortex_m_store_core_reg_u32(): write core reg 15 value 0x20000100
Debug: 1407 3067 armv7m.c:341 armv7m_write_core_reg(): write core reg 8 value 0xffffffff
Debug: 1408 3067 adi_v5_cmsis_dap.c:156 cmsis_dap_queue_ap_write(): CMSIS-ADI: cmsis_dap_queue_ap_write 24 0xffffffff
Debug: 1409 3067 adi_v5_cmsis_dap.c:156 cmsis_dap_queue_ap_write(): CMSIS-ADI: cmsis_dap_queue_ap_write 20 0x00010008
Debug: 1410 3067 adi_v5_cmsis_dap.c:233 cmsis_dap_run(): CMSIS-ADI: cmsis_dap_run
Debug: 1411 3067 cortex_m.c:1666 cortex_m_store_core_reg_u32(): write core reg 8 value 0xffffffff
Debug: 1412 3067 armv7m.c:341 armv7m_write_core_reg(): write core reg 7 value 0xffffffff
Debug: 1413 3067 adi_v5_cmsis_dap.c:156 cmsis_dap_queue_ap_write(): CMSIS-ADI: cmsis_dap_queue_ap_write 24 0xffffffff
Debug: 1414 3067 adi_v5_cmsis_dap.c:156 cmsis_dap_queue_ap_write(): CMSIS-ADI: cmsis_dap_queue_ap_write 20 0x00010007
Debug: 1415 3067 adi_v5_cmsis_dap.c:233 cmsis_dap_run(): CMSIS-ADI: cmsis_dap_run
Debug: 1416 3067 cortex_m.c:1666 cortex_m_store_core_reg_u32(): write core reg 7 value 0xffffffff
Debug: 1417 3067 armv7m.c:341 armv7m_write_core_reg(): write core reg 6 value 0xffffffff
Debug: 1418 3067 adi_v5_cmsis_dap.c:156 cmsis_dap_queue_ap_write(): CMSIS-ADI: cmsis_dap_queue_ap_write 24 0xffffffff
Debug: 1419 3067 adi_v5_cmsis_dap.c:156 cmsis_dap_queue_ap_write(): CMSIS-ADI: cmsis_dap_queue_ap_write 20 0x00010006
Debug: 1420 3067 adi_v5_cmsis_dap.c:233 cmsis_dap_run(): CMSIS-ADI: cmsis_dap_run
Debug: 1421 3067 cortex_m.c:1666 cortex_m_store_core_reg_u32(): write core reg 6 value 0xffffffff
Debug: 1422 3067 armv7m.c:341 armv7m_write_core_reg(): write core reg 5 value 0xffffffff
Debug: 1423 3067 adi_v5_cmsis_dap.c:156 cmsis_dap_queue_ap_write(): CMSIS-ADI: cmsis_dap_queue_ap_write 24 0xffffffff
Debug: 1424 3067 adi_v5_cmsis_dap.c:156 cmsis_dap_queue_ap_write(): CMSIS-ADI: cmsis_dap_queue_ap_write 20 0x00010005
Debug: 1425 3067 adi_v5_cmsis_dap.c:233 cmsis_dap_run(): CMSIS-ADI: cmsis_dap_run
Debug: 1426 3067 cortex_m.c:1666 cortex_m_store_core_reg_u32(): write core reg 5 value 0xffffffff
Debug: 1427 3067 armv7m.c:341 armv7m_write_core_reg(): write core reg 4 value 0xffffffff
Debug: 1428 3067 adi_v5_cmsis_dap.c:156 cmsis_dap_queue_ap_write(): CMSIS-ADI: cmsis_dap_queue_ap_write 24 0xffffffff
Debug: 1429 3067 adi_v5_cmsis_dap.c:156 cmsis_dap_queue_ap_write(): CMSIS-ADI: cmsis_dap_queue_ap_write 20 0x00010004
Debug: 1430 3067 adi_v5_cmsis_dap.c:233 cmsis_dap_run(): CMSIS-ADI: cmsis_dap_run
Debug: 1431 3067 cortex_m.c:1666 cortex_m_store_core_reg_u32(): write core reg 4 value 0xffffffff
Debug: 1432 3067 armv7m.c:341 armv7m_write_core_reg(): write core reg 3 value 0xffffffff
Debug: 1433 3067 adi_v5_cmsis_dap.c:156 cmsis_dap_queue_ap_write(): CMSIS-ADI: cmsis_dap_queue_ap_write 24 0xffffffff
Debug: 1434 3083 adi_v5_cmsis_dap.c:156 cmsis_dap_queue_ap_write(): CMSIS-ADI: cmsis_dap_queue_ap_write 20 0x00010003
Debug: 1435 3083 adi_v5_cmsis_dap.c:233 cmsis_dap_run(): CMSIS-ADI: cmsis_dap_run
Debug: 1436 3083 cortex_m.c:1666 cortex_m_store_core_reg_u32(): write core reg 3 value 0xffffffff
Debug: 1437 3083 armv7m.c:341 armv7m_write_core_reg(): write core reg 2 value 0xffffffff
Debug: 1438 3083 adi_v5_cmsis_dap.c:156 cmsis_dap_queue_ap_write(): CMSIS-ADI: cmsis_dap_queue_ap_write 24 0xffffffff
Debug: 1439 3083 adi_v5_cmsis_dap.c:156 cmsis_dap_queue_ap_write(): CMSIS-ADI: cmsis_dap_queue_ap_write 20 0x00010002
Debug: 1440 3083 adi_v5_cmsis_dap.c:233 cmsis_dap_run(): CMSIS-ADI: cmsis_dap_run
Debug: 1441 3083 cortex_m.c:1666 cortex_m_store_core_reg_u32(): write core reg 2 value 0xffffffff
Debug: 1442 3083 armv7m.c:341 armv7m_write_core_reg(): write core reg 1 value 0x40000
Debug: 1443 3083 adi_v5_cmsis_dap.c:156 cmsis_dap_queue_ap_write(): CMSIS-ADI: cmsis_dap_queue_ap_write 24 0x00040000
Debug: 1444 3083 adi_v5_cmsis_dap.c:156 cmsis_dap_queue_ap_write(): CMSIS-ADI: cmsis_dap_queue_ap_write 20 0x00010001
Debug: 1445 3083 adi_v5_cmsis_dap.c:233 cmsis_dap_run(): CMSIS-ADI: cmsis_dap_run
Debug: 1446 3083 cortex_m.c:1666 cortex_m_store_core_reg_u32(): write core reg 1 value 0x40000
Debug: 1447 3083 armv7m.c:341 armv7m_write_core_reg(): write core reg 0 value 0x4000000
Debug: 1448 3083 adi_v5_cmsis_dap.c:156 cmsis_dap_queue_ap_write(): CMSIS-ADI: cmsis_dap_queue_ap_write 24 0x04000000
Debug: 1449 3083 adi_v5_cmsis_dap.c:156 cmsis_dap_queue_ap_write(): CMSIS-ADI: cmsis_dap_queue_ap_write 20 0x00010000
Debug: 1450 3083 adi_v5_cmsis_dap.c:233 cmsis_dap_run(): CMSIS-ADI: cmsis_dap_run
Debug: 1451 3083 cortex_m.c:1666 cortex_m_store_core_reg_u32(): write core reg 0 value 0x4000000
Debug: 1452 3083 adi_v5_cmsis_dap.c:156 cmsis_dap_queue_ap_write(): CMSIS-ADI: cmsis_dap_queue_ap_write 16 0xa05f0001
Debug: 1453 3083 adi_v5_cmsis_dap.c:233 cmsis_dap_run(): CMSIS-ADI: cmsis_dap_run
Debug: 1454 3083 target.c:1415 target_call_event_callbacks(): target event 20 (debug-resumed)
Debug: 1455 3083 cortex_m.c:847 cortex_m_resume(): target debug resumed at 0x20000100
Debug: 1456 3083 target.c:1415 target_call_event_callbacks(): target event 4 (resume-end)
Debug: 1457 3083 adi_v5_cmsis_dap.c:136 cmsis_dap_queue_ap_read(): CMSIS-ADI: cmsis_dap_queue_ap_read 16
Debug: 1458 3089 adi_v5_cmsis_dap.c:233 cmsis_dap_run(): CMSIS-ADI: cmsis_dap_run
Debug: 1459 3089 target.c:2649 target_wait_state(): waiting for target halted...
Debug: 1460 3089 adi_v5_cmsis_dap.c:136 cmsis_dap_queue_ap_read(): CMSIS-ADI: cmsis_dap_queue_ap_read 16
Debug: 1461 3089 adi_v5_cmsis_dap.c:233 cmsis_dap_run(): CMSIS-ADI: cmsis_dap_run
Debug: 1462 3089 adi_v5_cmsis_dap.c:136 cmsis_dap_queue_ap_read(): CMSIS-ADI: cmsis_dap_queue_ap_read 16
Debug: 1463 3089 adi_v5_cmsis_dap.c:233 cmsis_dap_run(): CMSIS-ADI: cmsis_dap_run
Debug: 1464 3089 adi_v5_cmsis_dap.c:136 cmsis_dap_queue_ap_read(): CMSIS-ADI: cmsis_dap_queue_ap_read 16
Debug: 1465 3089 adi_v5_cmsis_dap.c:233 cmsis_dap_run(): CMSIS-ADI: cmsis_dap_run
Debug: 1466 3089 adi_v5_cmsis_dap.c:136 cmsis_dap_queue_ap_read(): CMSIS-ADI: cmsis_dap_queue_ap_read 16
Debug: 1467 3089 adi_v5_cmsis_dap.c:233 cmsis_dap_run(): CMSIS-ADI: cmsis_dap_run
Debug: 1468 3089 adi_v5_cmsis_dap.c:136 cmsis_dap_queue_ap_read(): CMSIS-ADI: cmsis_dap_queue_ap_read 16
Debug: 1469 3089 adi_v5_cmsis_dap.c:233 cmsis_dap_run(): CMSIS-ADI: cmsis_dap_run
Debug: 1470 3089 adi_v5_cmsis_dap.c:136 cmsis_dap_queue_ap_read(): CMSIS-ADI: cmsis_dap_queue_ap_read 16
Debug: 1471 3089 adi_v5_cmsis_dap.c:233 cmsis_dap_run(): CMSIS-ADI: cmsis_dap_run
Debug: 1472 3089 adi_v5_cmsis_dap.c:136 cmsis_dap_queue_ap_read(): CMSIS-ADI: cmsis_dap_queue_ap_read 16
Debug: 1473 3089 adi_v5_cmsis_dap.c:233 cmsis_dap_run(): CMSIS-ADI: cmsis_dap_run
Debug: 1474 3089 adi_v5_cmsis_dap.c:136 cmsis_dap_queue_ap_read(): CMSIS-ADI: cmsis_dap_queue_ap_read 16
Debug: 1475 3089 adi_v5_cmsis_dap.c:233 cmsis_dap_run(): CMSIS-ADI: cmsis_dap_run
Debug: 1476 3089 adi_v5_cmsis_dap.c:136 cmsis_dap_queue_ap_read(): CMSIS-ADI: cmsis_dap_queue_ap_read 16
Debug: 1477 3089 adi_v5_cmsis_dap.c:233 cmsis_dap_run(): CMSIS-ADI: cmsis_dap_run
Debug: 1478 3089 adi_v5_cmsis_dap.c:136 cmsis_dap_queue_ap_read(): CMSIS-ADI: cmsis_dap_queue_ap_read 16
Debug: 1479 3089 adi_v5_cmsis_dap.c:233 cmsis_dap_run(): CMSIS-ADI: cmsis_dap_run
Debug: 1480 3089 adi_v5_cmsis_dap.c:136 cmsis_dap_queue_ap_read(): CMSIS-ADI: cmsis_dap_queue_ap_read 16
Debug: 1481 3089 adi_v5_cmsis_dap.c:233 cmsis_dap_run(): CMSIS-ADI: cmsis_dap_run
Debug: 1482 3089 adi_v5_cmsis_dap.c:136 cmsis_dap_queue_ap_read(): CMSIS-ADI: cmsis_dap_queue_ap_read 16
Debug: 1483 3089 adi_v5_cmsis_dap.c:233 cmsis_dap_run(): CMSIS-ADI: cmsis_dap_run
Debug: 1484 3089 adi_v5_cmsis_dap.c:136 cmsis_dap_queue_ap_read(): CMSIS-ADI: cmsis_dap_queue_ap_read 16
Debug: 1485 3089 adi_v5_cmsis_dap.c:233 cmsis_dap_run(): CMSIS-ADI: cmsis_dap_run
Debug: 1486 3089 adi_v5_cmsis_dap.c:136 cmsis_dap_queue_ap_read(): CMSIS-ADI: cmsis_dap_queue_ap_read 16
Debug: 1487 3089 adi_v5_cmsis_dap.c:233 cmsis_dap_run(): CMSIS-ADI: cmsis_dap_run
Debug: 1488 3089 adi_v5_cmsis_dap.c:136 cmsis_dap_queue_ap_read(): CMSIS-ADI: cmsis_dap_queue_ap_read 16
Debug: 1489 3089 adi_v5_cmsis_dap.c:233 cmsis_dap_run(): CMSIS-ADI: cmsis_dap_run
Debug: 1490 3089 adi_v5_cmsis_dap.c:136 cmsis_dap_queue_ap_read(): CMSIS-ADI: cmsis_dap_queue_ap_read 16
Debug: 1491 3089 adi_v5_cmsis_dap.c:233 cmsis_dap_run(): CMSIS-ADI: cmsis_dap_run
Debug: 1492 3089 adi_v5_cmsis_dap.c:136 cmsis_dap_queue_ap_read(): CMSIS-ADI: cmsis_dap_queue_ap_read 16
Debug: 1493 3089 adi_v5_cmsis_dap.c:233 cmsis_dap_run(): CMSIS-ADI: cmsis_dap_run
Debug: 1494 3089 adi_v5_cmsis_dap.c:136 cmsis_dap_queue_ap_read(): CMSIS-ADI: cmsis_dap_queue_ap_read 16
Debug: 1495 3089 adi_v5_cmsis_dap.c:233 cmsis_dap_run(): CMSIS-ADI: cmsis_dap_run
Debug: 1496 3089 adi_v5_cmsis_dap.c:136 cmsis_dap_queue_ap_read(): CMSIS-ADI: cmsis_dap_queue_ap_read 16
Debug: 1497 3089 adi_v5_cmsis_dap.c:233 cmsis_dap_run(): CMSIS-ADI: cmsis_dap_run
Debug: 1498 3089 adi_v5_cmsis_dap.c:136 cmsis_dap_queue_ap_read(): CMSIS-ADI: cmsis_dap_queue_ap_read 16
Debug: 1499 3105 adi_v5_cmsis_dap.c:233 cmsis_dap_run(): CMSIS-ADI: cmsis_dap_run
Debug: 1500 3105 adi_v5_cmsis_dap.c:136 cmsis_dap_queue_ap_read(): CMSIS-ADI: cmsis_dap_queue_ap_read 16
Debug: 1501 3105 adi_v5_cmsis_dap.c:233 cmsis_dap_run(): CMSIS-ADI: cmsis_dap_run
Debug: 1502 3105 adi_v5_cmsis_dap.c:136 cmsis_dap_queue_ap_read(): CMSIS-ADI: cmsis_dap_queue_ap_read 16
Debug: 1503 3105 adi_v5_cmsis_dap.c:233 cmsis_dap_run(): CMSIS-ADI: cmsis_dap_run
Debug: 1504 3105 adi_v5_cmsis_dap.c:136 cmsis_dap_queue_ap_read(): CMSIS-ADI: cmsis_dap_queue_ap_read 16
Debug: 1505 3105 adi_v5_cmsis_dap.c:233 cmsis_dap_run(): CMSIS-ADI: cmsis_dap_run
Debug: 1506 3105 adi_v5_cmsis_dap.c:136 cmsis_dap_queue_ap_read(): CMSIS-ADI: cmsis_dap_queue_ap_read 16
Debug: 1507 3105 adi_v5_cmsis_dap.c:233 cmsis_dap_run(): CMSIS-ADI: cmsis_dap_run
Debug: 1508 3105 adi_v5_cmsis_dap.c:136 cmsis_dap_queue_ap_read(): CMSIS-ADI: cmsis_dap_queue_ap_read 16
Debug: 1509 3105 adi_v5_cmsis_dap.c:233 cmsis_dap_run(): CMSIS-ADI: cmsis_dap_run
Debug: 1510 3105 adi_v5_cmsis_dap.c:136 cmsis_dap_queue_ap_read(): CMSIS-ADI: cmsis_dap_queue_ap_read 16
Debug: 1511 3105 adi_v5_cmsis_dap.c:233 cmsis_dap_run(): CMSIS-ADI: cmsis_dap_run
Debug: 1512 3105 adi_v5_cmsis_dap.c:136 cmsis_dap_queue_ap_read(): CMSIS-ADI: cmsis_dap_queue_ap_read 16
Debug: 1513 3105 adi_v5_cmsis_dap.c:233 cmsis_dap_run(): CMSIS-ADI: cmsis_dap_run
Debug: 1514 3105 adi_v5_cmsis_dap.c:136 cmsis_dap_queue_ap_read(): CMSIS-ADI: cmsis_dap_queue_ap_read 16
Debug: 1515 3105 adi_v5_cmsis_dap.c:233 cmsis_dap_run(): CMSIS-ADI: cmsis_dap_run
Debug: 1516 3105 adi_v5_cmsis_dap.c:136 cmsis_dap_queue_ap_read(): CMSIS-ADI: cmsis_dap_queue_ap_read 16
Debug: 1517 3105 adi_v5_cmsis_dap.c:233 cmsis_dap_run(): CMSIS-ADI: cmsis_dap_run
Debug: 1518 3105 adi_v5_cmsis_dap.c:136 cmsis_dap_queue_ap_read(): CMSIS-ADI: cmsis_dap_queue_ap_read 16
Debug: 1519 3105 adi_v5_cmsis_dap.c:233 cmsis_dap_run(): CMSIS-ADI: cmsis_dap_run
Debug: 1520 3105 adi_v5_cmsis_dap.c:136 cmsis_dap_queue_ap_read(): CMSIS-ADI: cmsis_dap_queue_ap_read 16
Debug: 1521 3105 adi_v5_cmsis_dap.c:233 cmsis_dap_run(): CMSIS-ADI: cmsis_dap_run
Debug: 1522 3105 adi_v5_cmsis_dap.c:136 cmsis_dap_queue_ap_read(): CMSIS-ADI: cmsis_dap_queue_ap_read 16
Debug: 1523 3105 adi_v5_cmsis_dap.c:233 cmsis_dap_run(): CMSIS-ADI: cmsis_dap_run
Debug: 1524 3105 adi_v5_cmsis_dap.c:136 cmsis_dap_queue_ap_read(): CMSIS-ADI: cmsis_dap_queue_ap_read 16
Debug: 1525 3105 adi_v5_cmsis_dap.c:233 cmsis_dap_run(): CMSIS-ADI: cmsis_dap_run
Debug: 1526 3105 adi_v5_cmsis_dap.c:136 cmsis_dap_queue_ap_read(): CMSIS-ADI: cmsis_dap_queue_ap_read 16
Debug: 1527 3105 adi_v5_cmsis_dap.c:233 cmsis_dap_run(): CMSIS-ADI: cmsis_dap_run
Debug: 1528 3105 adi_v5_cmsis_dap.c:136 cmsis_dap_queue_ap_read(): CMSIS-ADI: cmsis_dap_queue_ap_read 16
Debug: 1529 3105 adi_v5_cmsis_dap.c:233 cmsis_dap_run(): CMSIS-ADI: cmsis_dap_run
Debug: 1530 3105 adi_v5_cmsis_dap.c:136 cmsis_dap_queue_ap_read(): CMSIS-ADI: cmsis_dap_queue_ap_read 16
Debug: 1531 3105 adi_v5_cmsis_dap.c:233 cmsis_dap_run(): CMSIS-ADI: cmsis_dap_run
Debug: 1532 3105 adi_v5_cmsis_dap.c:136 cmsis_dap_queue_ap_read(): CMSIS-ADI: cmsis_dap_queue_ap_read 16
Debug: 1533 3105 adi_v5_cmsis_dap.c:233 cmsis_dap_run(): CMSIS-ADI: cmsis_dap_run
Debug: 1534 3105 adi_v5_cmsis_dap.c:136 cmsis_dap_queue_ap_read(): CMSIS-ADI: cmsis_dap_queue_ap_read 16
Debug: 1535 3105 adi_v5_cmsis_dap.c:233 cmsis_dap_run(): CMSIS-ADI: cmsis_dap_run
Debug: 1536 3105 adi_v5_cmsis_dap.c:136 cmsis_dap_queue_ap_read(): CMSIS-ADI: cmsis_dap_queue_ap_read 16
Debug: 1537 3105 adi_v5_cmsis_dap.c:233 cmsis_dap_run(): CMSIS-ADI: cmsis_dap_run
Debug: 1538 3105 adi_v5_cmsis_dap.c:136 cmsis_dap_queue_ap_read(): CMSIS-ADI: cmsis_dap_queue_ap_read 16
Debug: 1539 3121 adi_v5_cmsis_dap.c:233 cmsis_dap_run(): CMSIS-ADI: cmsis_dap_run
Debug: 1540 3121 adi_v5_cmsis_dap.c:136 cmsis_dap_queue_ap_read(): CMSIS-ADI: cmsis_dap_queue_ap_read 16
Debug: 1541 3121 adi_v5_cmsis_dap.c:233 cmsis_dap_run(): CMSIS-ADI: cmsis_dap_run
Debug: 1542 3121 adi_v5_cmsis_dap.c:136 cmsis_dap_queue_ap_read(): CMSIS-ADI: cmsis_dap_queue_ap_read 16
Debug: 1543 3121 adi_v5_cmsis_dap.c:233 cmsis_dap_run(): CMSIS-ADI: cmsis_dap_run
Debug: 1544 3121 adi_v5_cmsis_dap.c:136 cmsis_dap_queue_ap_read(): CMSIS-ADI: cmsis_dap_queue_ap_read 16
Debug: 1545 3121 adi_v5_cmsis_dap.c:233 cmsis_dap_run(): CMSIS-ADI: cmsis_dap_run
Debug: 1546 3121 adi_v5_cmsis_dap.c:136 cmsis_dap_queue_ap_read(): CMSIS-ADI: cmsis_dap_queue_ap_read 16
Debug: 1547 3121 adi_v5_cmsis_dap.c:233 cmsis_dap_run(): CMSIS-ADI: cmsis_dap_run
Debug: 1548 3121 adi_v5_cmsis_dap.c:136 cmsis_dap_queue_ap_read(): CMSIS-ADI: cmsis_dap_queue_ap_read 16
Debug: 1549 3121 adi_v5_cmsis_dap.c:233 cmsis_dap_run(): CMSIS-ADI: cmsis_dap_run
Debug: 1550 3121 adi_v5_cmsis_dap.c:136 cmsis_dap_queue_ap_read(): CMSIS-ADI: cmsis_dap_queue_ap_read 16
